!Keysight Technologies,N5227B,US58420583,A.13.95.07
!Date: Wednesday, April 06, 2022 15:24:42
!Correction: S11(Full 3 Port(1,2,3)) 
!S12(Full 3 Port(1,2,3)) 
!S13(Full 3 Port(1,2,3)) 
!S21(Full 3 Port(1,2,3)) 
!S22(Full 3 Port(1,2,3)) 
!S23(Full 3 Port(1,2,3)) 
!S31(Full 3 Port(1,2,3)) 
!S32(Full 3 Port(1,2,3)) 
!S33(Full 3 Port(1,2,3)) 
!S3P File: Measurements: <S11,S12,S13>,
!<S21,S22,S23>,
!<S31,S32,S33>:
# Hz S  dB   R 50
650000000 -0.053772084 135.41083 -73.202042 102.96544 -102.35361 -122.16917
-72.985359 104.43882 -0.31611687 -78.757126 -92.995018 71.384766
-102.21368 -67.8358 -92.112617 95.405098 -0.010775816 4.1323738
660000000 -0.056114979 134.73582 -70.51255 83.125473 -97.797844 -119.37453
-70.371567 84.565033 -0.32822385 -88.573502 -93.096298 32.210278
-95.618423 -151.36195 -95.822845 44.367233 -0.009418699 4.2145591
670000000 -0.059347145 134.06898 -69.482162 56.677864 -96.153816 -162.13118
-69.408478 60.029072 -0.34244433 -98.625107 -94.042091 50.805893
-100.68585 -149.18791 -92.567963 28.495096 -0.0079317736 4.2776427
680000000 -0.061784223 133.4104 -68.540115 37.938007 -96.102463 -164.67751
-68.187279 38.848087 -0.3573707 -108.9174 -89.983223 21.229357
-108.16991 165.55867 -89.019859 40.792809 -0.00676399 4.3379064
690000000 -0.064359926 132.7733 -67.95089 5.3713398 -108.16878 -70.237953
-67.756691 8.0167122 -0.37370569 -119.46273 -88.502647 4.9913726
-102.03312 -163.74304 -91.255013 11.136009 -0.0084323296 4.4147601
700000000 -0.062324755 132.13214 -67.562149 -22.79343 -97.720001 -138.80888
-67.1604 -22.179688 -0.38994855 -130.25113 -87.481125 -5.2204638
-99.24102 -126.15051 -87.058563 -11.162968 -0.0079851625 4.478703
710000000 -0.06183517 131.48447 -69.463104 -56.267853 -96.540245 -160.34775
-68.676483 -57.876625 -0.40760791 -141.26338 -87.15757 -31.026096
-100.57709 -154.31561 -86.86058 -32.266785 -0.0082511948 4.5358248
720000000 -0.058646984 130.84619 -76.525063 -90.214775 -97.16787 131.08403
-76.51963 -90.747536 -0.4231959 -152.4409 -87.593971 -55.646473
-100.45164 126.69599 -85.216301 -51.917515 -0.0083281416 4.5881286
730000000 -0.055914488 130.19057 -73.718025 -49.858543 -109.3683 80.996269
-73.257645 -55.465641 -0.43040162 -163.79565 -87.191467 -77.683098
-107.19445 154.70428 -87.23642 -64.99572 -0.010761662 4.6409893
740000000 -0.053187005 129.53429 -70.899231 -90.833473 -95.681976 94.235641
-71.544464 -91.521706 -0.4369725 -175.30182 -90.256256 -80.384323
-107.14494 -148.58922 -90.31562 -77.928276 -0.011803067 4.7123213
750000000 -0.051156178 128.8605 -71.327477 -116.89727 -97.77317 120.7655
-71.178864 -113.95794 -0.44281265 173.10048 -89.32328 -79.872353
-98.159889 121.55763 -88.507858 -84.213089 -0.010772617 4.7699099
760000000 -0.051693156 128.19513 -71.648537 -152.57083 -97.497353 100.95818
-71.185997 -153.92039 -0.44969246 161.4798 -88.534157 -88.793694
-97.859673 91.429893 -87.840225 -76.639481 -0.011149032 4.8367743
770000000 -0.052360106 127.52443 -71.93367 -176.48705 -104.69572 53.365723
-71.365791 -179.18059 -0.45581213 149.89445 -86.643227 -92.270798
-101.26462 80.007156 -85.012497 -103.33534 -0.010690963 4.909009
780000000 -0.05304477 126.8641 -73.467087 143.01144 -114.33364 149.82062
-73.688911 143.62959 -0.46186775 138.41394 -86.186714 -106.87035
-99.61528 99.424728 -86.037346 -105.17764 -0.01058792 4.9825816
790000000 -0.051840976 126.2003 -72.933273 130.74713 -104.02877 63.379238
-72.478256 134.16553 -0.46059635 127.08831 -85.290047 -123.40791
-113.81926 35.00964 -84.589058 -123.76823 -0.0090690497 5.0568318
800000000 -0.051669065 125.53371 -76.291779 94.001022 -100.34002 61.346691
-74.757355 93.427269 -0.44987997 115.94069 -84.389458 -147.26625
-103.32208 27.264435 -84.304443 -148.99591 -0.0084966263 5.1306882
810000000 -0.053009998 124.86925 -76.460159 75.086555 -99.054741 62.860664
-75.430763 72.193237 -0.43626797 104.9366 -85.774055 -175.52124
-104.48827 22.887865 -84.895401 -166.32629 -0.0081769871 5.1887794
820000000 -0.054295354 124.2246 -78.318634 51.994473 -97.982529 -11.992985
-77.148926 43.578266 -0.42309976 94.141724 -85.525162 -177.39964
-102.3854 47.28273 -85.71859 172.5231 -0.0088888677 5.2512274
830000000 -0.053631797 123.57725 -80.25042 10.562688 -101.2498 -71.452515
-78.960571 11.775976 -0.40892345 83.567665 -85.841972 153.07619
-99.581108 -21.776308 -85.945038 158.4054 -0.0099219047 5.3118138
840000000 -0.053142205 122.92832 -93.037956 -32.894043 -110.41777 -65.425644
-87.739647 -26.093393 -0.39677012 73.212875 -88.637779 153.96333
-98.233063 -31.894579 -88.035881 130.36836 -0.0099382605 5.3634377
850000000 -0.051480792 122.27768 -80.423813 96.2192 -107.21533 -117.60204
-81.855179 89.115417 -0.38729134 63.093376 -90.377998 133.65376
-108.7038 38.815899 -88.005455 118.86456 -0.0098665524 5.4142499
860000000 -0.050927948 121.62032 -77.492088 19.324423 -98.904015 -174.38947
-77.43766 20.779921 -0.37763682 53.180775 -91.41098 97.926392
-116.40651 72.066795 -88.397598 120.34322 -0.0090541067 5.4750171
870000000 -0.049632251 120.96148 -78.738029 -23.280069 -108.2763 147.42882
-78.905006 -28.679962 -0.36994302 43.471458 -90.481689 107.48623
-105.37032 149.33401 -90.858116 102.64883 -0.010160135 5.5410848
880000000 -0.049490757 120.29234 -81.016563 -68.831841 -103.37125 84.439651
-80.631157 -72.810379 -0.36188695 33.942535 -94.129814 74.237137
-108.7407 79.660217 -96.35096 105.23089 -0.0084649278 5.6134567
890000000 -0.050103717 119.62889 -81.564331 -107.26012 -109.59697 141.52219
-81.907555 -116.234 -0.35693476 24.556019 -103.0994 67.938004
-112.85423 89.572433 -96.713219 105.80283 -0.0071515306 5.6831355
900000000 -0.050649375 118.96935 -82.816109 -159.54675 -105.04177 57.756851
-82.296822 -157.30484 -0.35390511 15.279098 -101.42182 27.465303
-102.61684 25.675547 -98.14238 98.06279 -0.0063666576 5.7443895
910000000 -0.050627545 118.3139 -83.801308 157.45493 -99.233727 10.63625
-84.405922 154.81055 -0.35347223 6.0724435 -105.12583 153.10048
-98.971039 22.847078 -109.22279 -14.259976 -0.0068035508 5.8097844
920000000 -0.050535541 117.66601 -85.631737 125.72031 -99.556839 -17.089697
-85.893143 129.75154 -0.35701582 -3.118089 -97.239357 -162.26199
-101.13844 -26.312067 -106.25359 128.68063 -0.0076250057 5.8734517
930000000 -0.049868878 117.01373 -86.123123 118.84821 -101.75631 -45.19051
-84.343536 126.80458 -0.36548981 -12.334094 -103.3807 152.88464
-98.272217 -73.70575 -101.80375 173.43655 -0.0090108952 5.9290695
940000000 -0.049043674 116.35927 -83.46196 110.69246 -103.53368 -77.86525
-82.477875 116.34962 -0.37707117 -21.550945 -94.640007 159.35089
-104.12796 -41.490162 -97.837349 132.86946 -0.0099180741 5.9863853
950000000 -0.04977113 115.70564 -80.125298 84.27359 -105.48743 -101.91867
-80.276321 88.462265 -0.38590997 -30.970291 -97.745552 176.36636
-106.92128 -89.968384 -94.653206 156.02386 -0.010513208 6.0393972
960000000 -0.051154483 115.05227 -77.497025 67.380325 -114.88058 -81.307304
-77.769485 71.583641 -0.40312612 -40.578007 -91.758965 145.70816
-111.38331 -77.469643 -93.785431 146.29311 -0.010127315 6.0989113
970000000 -0.052052692 114.39793 -74.058174 36.921753 -99.406723 5.2921624
-73.800667 41.552368 -0.42370892 -50.480274 -93.058411 124.88702
-99.942223 64.12455 -91.173126 145.2182 -0.0089231068 6.1641169
980000000 -0.054087047 113.7448 -71.268097 -1.1528605 -94.566856 -20.851419
-71.267982 3.3109448 -0.45182264 -60.806736 -88.267403 126.89171
-103.80048 -23.202559 -89.095901 136.8741 -0.0079767611 6.2369566
990000000 -0.056102026 113.09169 -70.422493 -35.863724 -102.35344 1.8725306
-70.286613 -31.322018 -0.49014589 -71.750648 -90.153328 121.47479
-99.051636 -43.310249 -88.970901 128.83235 -0.006716487 6.3096399
1000000000 -0.058852084 112.42795 -68.263802 -65.213387 -97.024673 -88.288551
-68.282898 -63.166561 -0.55096841 -83.665001 -90.071396 126.55093
-99.267914 -86.530563 -88.689262 119.71123 -0.0052945148 6.3866277
1010000000 -0.063042715 111.7702 -66.867035 -100.44303 -96.746391 -87.109337
-67.187233 -98.267647 -0.66694498 -97.228508 -87.044678 108.78693
-102.60374 -115.31768 -87.377708 106.19077 -0.004297263 6.4657025
1020000000 -0.068666071 111.13239 -65.313248 -142.48701 -106.33437 -105.22066
-65.635117 -139.25272 -1.004004 -114.56834 -85.755409 88.338326
-97.139008 -124.86116 -85.024574 88.42421 -0.0052443799 6.5340824
1030000000 -0.07096035 110.51465 -66.930397 172.5648 -101.59969 153.7076
-66.836449 175.71771 -4.1971889 -144.67276 -85.413452 67.927383
-107.66945 -63.18195 -86.317184 67.273071 -0.0056672962 6.5960412
1040000000 -0.072735213 109.88741 -69.849289 159.26799 -112.67813 -45.156471
-69.990685 160.83339 -2.3921318 -107.78443 -84.801567 82.794434
-101.0856 -2.3762212 -86.463211 71.728958 -0.0066843443 6.6583762
1050000000 -0.07534413 109.27994 -69.941528 142.45132 -101.89493 145.64629
-70.930565 142.67004 -1.1701729 -137.46017 -84.319473 62.586773
-104.58205 -101.96564 -83.948502 56.82756 -0.0070044054 6.7131109
1060000000 -0.071444578 108.67572 -69.757027 115.59216 -104.49617 -165.90533
-70.374069 117.86045 -1.1685355 -162.32986 -83.211922 40.168842
-113.52273 -36.017513 -83.11055 44.527157 -0.0076209842 6.7721281
1070000000 -0.069487162 108.0351 -70.585159 80.704132 -101.64154 80.403732
-71.298584 83.521652 -1.3849629 169.73976 -82.565781 14.080303
-107.72153 -132.63205 -83.586693 17.384497 -0.0078760618 6.8285403
1080000000 -0.071369052 107.40599 -74.283882 27.011169 -118.03346 -152.0098
-75.778313 36.865849 -1.7341442 135.1346 -83.845512 -4.1518779
-99.985016 37.20047 -85.071449 -8.0942135 -0.0071093971 6.8928914
1090000000 -0.070642248 106.78697 -88.035561 -42.548805 -98.839508 8.705246
-92.997734 -34.59227 -2.1191719 91.55352 -87.470375 -32.648083
-101.75069 17.382179 -87.73494 -33.899357 -0.0058881096 6.9618893
1100000000 -0.069331147 106.16129 -83.402664 -176.28767 -102.70107 -8.2255726
-82.785522 179.19675 -2.2716072 40.939125 -90.909866 -51.045273
-96.194725 -43.356747 -92.107841 -54.367321 -0.00484474 7.0318542
1110000000 -0.068159901 105.53352 -81.441109 134.58575 -96.773499 -37.182961
-80.46048 133.77223 -2.0560532 -8.7395735 -99.694702 55.67337
-96.279633 -64.976662 -99.7957 49.17297 -0.0034886722 7.1004906
1120000000 -0.065862261 104.9066 -81.124374 107.78722 -98.203903 -35.900238
-80.075684 110.62583 -1.7093366 -50.916504 -90.547523 40.767525
-100.15004 -95.680595 -89.180298 46.051704 -0.0027983561 7.168695
1130000000 -0.063505366 104.26655 -80.561638 83.936363 -99.242126 -33.114548
-78.506378 83.805046 -1.4343895 -85.255272 -86.457718 19.268223
-98.43383 -75.51252 -87.552025 18.506979 -0.0029541876 7.2352519
1140000000 -0.062538199 103.62553 -81.759995 39.316914 -98.36544 -25.142904
-80.654114 38.747917 -1.265099 -114.07254 -83.888878 -1.3394461
-95.996483 -27.792837 -84.378342 0.48011523 -0.0032549382 7.2966213
1150000000 -0.062048834 102.98591 -83.415588 -26.727688 -94.478546 -63.161957
-82.039482 -21.45812 -1.1735897 -139.57651 -85.687965 -24.259197
-95.216049 -61.131527 -84.679291 -17.962406 -0.0053571723 7.3584943
1160000000 -0.061989661 102.353 -80.364357 -69.589523 -94.301567 -89.635406
-80.297394 -66.850288 -1.1336542 -163.34532 -84.177322 -31.946571
-94.21286 -98.338837 -84.542732 -38.043404 -0.0061305477 7.4159727
1170000000 -0.060906772 101.72112 -76.893112 -124.72942 -91.772079 -81.701874
-76.728043 -124.39938 -1.1295283 173.56055 -84.081161 -61.796021
-94.793922 -109.26244 -84.256378 -48.635399 -0.0068176328 7.4784923
1180000000 -0.059536904 101.0923 -74.836967 -138.3743 -92.446915 -112.03246
-75.528946 -137.52109 -1.1496619 150.41077 -86.455261 -77.826294
-92.420464 -139.98772 -84.640739 -78.802574 -0.0069040675 7.5414519
1190000000 -0.057278942 100.45998 -72.102142 -172.38399 -90.770317 -149.71797
-72.92276 -169.98441 -1.1870732 126.68982 -86.96769 -106.49477
-89.391212 -130.75272 -86.634377 -103.48782 -0.0061580539 7.6072402
1200000000 -0.054895021 99.821434 -71.92437 157.67192 -91.105972 -161.01036
-71.983856 159.76779 -1.2338688 102.08044 -90.734726 -128.34782
-91.5495 -167.64008 -90.298744 -119.99156 -0.0049154828 7.6743264
1210000000 -0.054454423 99.179878 -72.762024 132.46082 -94.777489 163.82471
-72.504982 133.69095 -1.2832602 76.413292 -96.10955 -156.66388
-93.943558 162.96585 -94.800278 -152.4931 -0.0036120685 7.7379684
1220000000 -0.054148395 98.544662 -76.296463 120.03754 -95.811996 153.0686
-76.047325 118.9034 -1.3288883 49.689297 -103.70482 179.01949
-97.996292 126.43512 -107.67943 161.85297 -0.0034844377 7.8005986
1230000000 -0.053670924 97.911613 -77.85405 128.46222 -102.26816 142.16882
-77.951027 129.36067 -1.3669213 22.086407 -107.79269 -109.61363
-106.54195 150.82721 -110.59823 -103.64826 -0.0038340776 7.8620114
1240000000 -0.052757785 97.281822 -76.748856 136.61777 -99.671936 137.52502
-76.984848 136.08537 -1.3919824 -6.0413036 -107.02444 -11.518419
-100.786 110.92454 -111.02025 -78.258789 -0.0047091432 7.9229145
1250000000 -0.051949404 96.651047 -75.338173 128.84187 -100.23965 146.14191
-75.281548 128.62895 -1.4008317 -34.234303 -111.00996 -43.513969
-105.49881 172.49477 -109.2726 17.062103 -0.0058365366 7.9771361
1260000000 -0.052162811 96.017128 -75.43882 115.29774 -105.83942 136.30931
-75.590004 117.50452 -1.3914708 -62.028931 -96.452576 -32.634087
-105.7814 152.93924 -101.88802 -32.300545 -0.0061085522 8.0345554
1270000000 -0.052087955 95.381424 -75.709053 104.23241 -118.0491 55.258408
-75.703018 103.37212 -1.3678107 -89.067406 -106.86734 -103.46476
-106.7034 80.015419 -100.85824 -26.572044 -0.0060820025 8.0990143
1280000000 -0.051387645 94.744934 -79.465736 99.841042 -102.11275 -59.10136
-79.912636 96.961082 -1.3352422 -115.13136 -96.62973 -24.682711
-100.48949 -158.55379 -94.688347 -31.573448 -0.0056651942 8.1687078
1290000000 -0.050810371 94.107758 -81.043777 120.49974 -98.062241 -119.7745
-80.747192 124.35705 -1.2963247 -140.16881 -94.649223 -57.253155
-100.69179 -127.27564 -93.880753 -54.420979 -0.0047405274 8.2455168
1300000000 -0.050640121 93.469696 -78.159325 138.74852 -96.645081 -138.66327
-78.424583 139.30138 -1.2575443 -164.23511 -95.95903 -72.651901
-95.989853 -146.638 -94.138206 -77.479752 -0.0040026545 8.3254833
1310000000 -0.050718009 92.834465 -75.663383 136.77737 -97.615685 -152.35854
-75.278587 135.0051 -1.2215216 172.55994 -98.586533 -88.009201
-98.888512 -165.02055 -93.382492 -107.56319 -0.002266563 8.3995361
1320000000 -0.051064238 92.201935 -74.141663 123.23471 -97.693413 -137.43539
-73.714493 124.843 -1.1884024 150.07872 -98.115616 -84.221756
-94.744041 -146.70171 -99.627029 -87.358925 -0.0016013583 8.4728718
1330000000 -0.050991114 91.570175 -73.336723 104.0164 -91.79837 -170.39641
-73.12928 105.35648 -1.1589897 128.17471 -115.02603 -65.63002
-93.367386 -169.7122 -104.7462 -78.826202 -0.0016921913 8.5462427
1340000000 -0.050421927 90.939163 -75.060379 91.815964 -91.889137 167.74185
-74.76075 90.817352 -1.1343945 106.70192 -103.18992 -70.502869
-90.738449 175.73927 -103.61907 -92.160744 -0.0013680193 8.615653
1350000000 -0.049729779 90.314926 -77.986687 79.674141 -91.143517 150.12785
-78.475433 80.493858 -1.1148933 85.507721 -97.652847 -77.641052
-91.165047 166.48785 -108.48873 20.774019 -0.0021994342 8.6770153
1360000000 -0.050610665 89.68737 -81.191154 111.12223 -90.900139 149.71049
-80.938324 102.20031 -1.1016235 64.473473 -100.51704 -115.91114
-91.700653 145.19366 -100.35099 -45.381844 -0.0032924081 8.7308969
1370000000 -0.051947329 89.06015 -79.161407 120.54929 -92.039085 127.57045
-78.7108 118.85227 -1.0964212 43.502735 -101.37424 -81.866768
-90.53891 136.9709 -102.91968 -90.998726 -0.0041660755 8.7914343
1380000000 -0.052138295 88.443161 -78.821724 127.48441 -91.824409 106.44341
-78.745895 127.72755 -1.0974643 22.530977 -116.38474 11.326022
-91.657257 116.61544 -104.51258 -111.57803 -0.004528414 8.8473654
1390000000 -0.051466323 87.820488 -76.12011 133.30571 -94.466202 125.22931
-76.037476 132.29343 -1.102361 1.5066713 -106.65157 164.35745
-90.33313 99.268227 -118.07172 149.00075 -0.0047614817 8.909255
1400000000 -0.05139327 87.192627 -74.380119 126.79853 -90.708145 103.69418
-74.570778 127.07291 -1.1112348 -19.601759 -96.996674 20.707136
-92.000221 117.87255 -99.752853 13.214234 -0.0042093899 8.9697876
1410000000 -0.052131604 86.563828 -73.843887 123.82227 -88.332596 95.643776
-73.530273 123.41107 -1.123412 -40.79673 -92.60627 7.2165604
-91.896103 95.66581 -92.753235 -13.798187 -0.0034279884 9.0322456
1420000000 -0.052788917 85.941223 -72.324707 121.37247 -88.75753 83.512383
-72.476341 121.702 -1.1382813 -62.063942 -87.556244 -13.754547
-88.894447 74.496727 -87.429802 -16.051136 -0.002483018 9.0956287
1430000000 -0.052157708 85.322983 -70.486824 113.07629 -90.481583 54.095383
-70.616425 113.63596 -1.1519299 -83.360481 -85.295441 -39.667877
-89.177635 58.391205 -86.915443 -42.349468 -0.0028557272 9.1622362
1440000000 -0.052398328 84.695374 -69.786674 100.66378 -91.640877 55.252434
-69.954178 100.30056 -1.1625779 -104.61554 -83.970245 -67.308296
-92.23774 49.091187 -84.72464 -55.602844 -0.0029007338 9.2282782
1450000000 -0.053722236 84.073509 -70.152657 88.13562 -92.406166 34.444622
-69.814178 87.694145 -1.1664971 -125.75564 -82.828255 -84.865479
-89.022438 45.572628 -83.19165 -85.090691 -0.0039921799 9.291254
1460000000 -0.05353234 83.461113 -71.227272 81.46756 -91.255661 33.926788
-71.519852 82.17968 -1.1624526 -146.71198 -82.351929 -104.91762
-90.374817 34.616077 -81.76046 -107.12394 -0.0032787118 9.3557281
1470000000 -0.053058121 82.845978 -70.562675 78.688629 -92.638374 33.6334
-70.759682 78.815681 -1.1522461 -167.43527 -81.894112 -130.16122
-91.970963 30.652756 -82.132416 -139.22797 -0.0043271752 9.4223042
1480000000 -0.051907312 82.220963 -70.599876 70.610123 -93.857773 10.703472
-70.60276 71.174347 -1.1393 172.11093 -81.955063 -155.37288
-91.888695 25.832336 -81.705475 -154.95374 -0.0046307608 9.4910736
1490000000 -0.05155281 81.591217 -70.100098 58.741909 -90.678268 6.2191763
-70.089203 58.334503 -1.1241628 151.93892 -82.645546 -179.10529
-92.823647 5.1766219 -81.925491 -178.19771 -0.0043287086 9.5586386
1500000000 -0.05189481 80.960938 -71.046158 36.143604 -89.49585 -3.4381893
-70.94442 36.418926 -1.110134 132.02705 -82.987724 158.97644
-91.752441 3.6144359 -83.136475 162.36037 -0.0041034976 9.6230059
1510000000 -0.052648503 80.333771 -74.677078 17.440063 -91.641922 -6.993629
-74.149765 16.772364 -1.0962068 112.31192 -84.36805 140.12059
-88.719147 -6.8298249 -84.858154 137.737 -0.0042083673 9.6826363
1520000000 -0.052967563 79.715164 -79.192291 6.3649621 -89.840164 -15.091327
-79.306007 6.3113251 -1.0857583 92.718842 -85.688377 124.26125
-89.383766 -12.350423 -85.989693 114.90536 -0.0043408731 9.7360783
1530000000 -0.053333838 79.100105 -88.444557 8.6366138 -92.365013 -34.913593
-88.995697 7.6167016 -1.0797595 73.137474 -88.815536 90.49131
-90.308403 -37.95842 -87.676956 94.247955 -0.0047636917 9.7900095
1540000000 -0.052690849 78.481789 -86.003128 144.19325 -91.78199 -46.970943
-87.323952 146.0571 -1.0818952 53.456375 -92.066849 87.084305
-91.682465 -52.330379 -91.691269 72.608528 -0.0051775426 9.8471937
1550000000 -0.052803233 77.866211 -79.848335 135.894 -91.121696 -47.931286
-79.732658 131.61943 -1.0940316 33.545242 -100.09711 60.498878
-90.64563 -52.635708 -95.695839 52.971203 -0.0054493812 9.9078312
1560000000 -0.052598018 77.251251 -76.812614 127.46088 -91.497505 -55.317596
-76.75972 126.66305 -1.1161958 13.287872 -105.44452 118.74181
-93.843956 -53.415306 -104.87373 39.039471 -0.0057514799 9.9689083
1570000000 -0.052987993 76.638344 -74.770912 120.63844 -92.762375 -65.052727
-74.597549 118.88725 -1.1475141 -7.4176702 -96.807663 123.566
-92.699951 -64.357994 -96.192932 136.6207 -0.0055102585 10.033872
1580000000 -0.054421235 76.024071 -73.03672 113.89427 -95.924911 -67.864403
-73.236382 114.53223 -1.186318 -28.641119 -90.703957 109.38335
-93.037743 -88.697769 -93.244698 126.28968 -0.0050960355 10.108543
1590000000 -0.055980772 75.416451 -71.915039 106.97417 -94.016136 -61.917286
-71.82357 108.65888 -1.2280734 -50.410568 -88.826035 107.95658
-95.008087 -60.451035 -89.684357 124.68221 -0.0036863815 10.185924
