# Hz S  dB   R 50
650000000 -0.30732548 -76.703773 -76.703773 -107.64464 -107.64464 172.91679 0 0 -76.777527 -69.666458 -69.666458 108.73024 172.91679 -52.542889 -52.542889 -95.823746 -95.823746 -104.74353 0 0 0 0 0 0 -104.74353 -48.872116 -48.872116 -0.068146348 -0.068146348 52.140697 0 0 0 0 0 0 0 0 0 0 0 0 0 0 0 0 0 0 108.73024 -79.302795 0 0 0 0 0 0 -79.302795 71.578499 71.578499 -69.767456 -69.767456 107.71349 0 0 0 0 0 0 107.71349 -0.033349779 -0.033349779 126.40565 
660000000 -0.31912267 -86.192345 -86.192345 -96.56102 -96.56102 -118.76998 0 0 -86.26368 -69.226501 -69.226501 105.42056 -118.76998 -52.723698 -52.723698 -101.47059 -101.47059 -101.86226 0 0 0 0 0 0 -101.86226 -85.371269 -85.371269 -0.069337085 -0.069337085 49.346581 0 0 0 0 0 0 0 0 0 0 0 0 0 0 0 0 0 0 105.42056 -82.980476 0 0 0 0 0 0 -82.980476 49.049053 49.049053 -69.501289 -69.501289 104.73993 0 0 0 0 0 0 104.73993 -0.033048831 -0.033048831 125.58891 
670000000 -0.33243436 -95.889206 -95.889206 -95.102921 -95.102921 -107.63767 0 0 -95.970055 -68.56987 -68.56987 100.47192 -107.63767 -53.051197 -53.051197 -107.79314 -107.79314 -94.291092 0 0 0 0 0 0 -94.291092 -118.15186 -118.15186 -0.073071487 -0.073071487 46.490162 0 0 0 0 0 0 0 0 0 0 0 0 0 0 0 0 0 0 100.47192 -85.024162 0 0 0 0 0 0 -85.024162 43.567589 43.567589 -68.601593 -68.601593 102.23819 0 0 0 0 0 0 102.23819 -0.033304278 -0.033304278 124.78309 
680000000 -0.34639233 -105.81914 -105.81914 -94.160133 -94.160133 -129.98029 0 0 -105.91361 -68.178444 -68.178444 92.58474 -129.98029 -53.433868 -53.433868 -113.72446 -113.72446 -91.345612 0 0 0 0 0 0 -91.345612 -140.25854 -140.25854 -0.075253248 -0.075253248 43.557728 0 0 0 0 0 0 0 0 0 0 0 0 0 0 0 0 0 0 92.58474 -86.486153 0 0 0 0 0 0 -86.486153 46.610962 46.610962 -68.084419 -68.084419 93.793465 0 0 0 0 0 0 93.793465 -0.033091057 -0.033091057 123.9717 
690000000 -0.35964257 -116.01553 -116.01553 -93.231926 -93.231926 -103.5116 0 0 -116.12454 -68.070915 -68.070915 88.297287 -103.5116 -53.92091 -53.92091 -119.56506 -119.56506 -94.847939 0 0 0 0 0 0 -94.847939 -117.49678 -117.49678 -0.078980394 -0.078980394 40.557178 0 0 0 0 0 0 0 0 0 0 0 0 0 0 0 0 0 0 88.297287 -88.486656 0 0 0 0 0 0 -88.486656 13.044751 13.044751 -67.815399 -67.815399 89.212456 0 0 0 0 0 0 89.212456 -0.032776877 -0.032776877 123.16187 
700000000 -0.3740603 -126.47975 -126.47975 -95.829346 -95.829346 -154.38907 0 0 -126.59619 -67.89283 -67.89283 84.24897 -154.38907 -54.514736 -54.514736 -125.47767 -125.47767 -97.616211 0 0 0 0 0 0 -97.616211 -116.80242 -116.80242 -0.083136939 -0.083136939 37.466499 0 0 0 0 0 0 0 0 0 0 0 0 0 0 0 0 0 0 84.24897 -88.641106 0 0 0 0 0 0 -88.641106 4.81212 4.81212 -67.688606 -67.688606 84.955772 0 0 0 0 0 0 84.955772 -0.032161459 -0.032161459 122.34552 
710000000 -0.38860878 -137.21529 -137.21529 -108.90466 -108.90466 -46.247665 0 0 -137.32835 -67.398895 -67.398895 79.758125 -46.247665 -55.105927 -55.105927 -131.44771 -131.44771 -109.06001 0 0 0 0 0 0 -109.06001 150.1658 150.1658 -0.088955589 -0.088955589 34.298237 0 0 0 0 0 0 0 0 0 0 0 0 0 0 0 0 0 0 79.758125 -91.395058 0 0 0 0 0 0 -91.395058 -48.377769 -48.377769 -67.372772 -67.372772 79.903923 0 0 0 0 0 0 79.903923 -0.033014517 -0.033014517 121.53197 
720000000 -0.40345648 -148.20776 -148.20776 -102.15504 -102.15504 41.353001 0 0 -148.31569 -66.928284 -66.928284 74.955254 41.353001 -55.921989 -55.921989 -137.41844 -137.41844 -96.427139 0 0 0 0 0 0 -96.427139 15.94702 15.94702 -0.093240239 -0.093240239 31.037825 0 0 0 0 0 0 0 0 0 0 0 0 0 0 0 0 0 0 74.955254 -91.701302 0 0 0 0 0 0 -91.701302 74.41819 74.41819 -66.860397 -66.860397 74.038361 0 0 0 0 0 0 74.038361 -0.033021539 -0.033021539 120.71364 
730000000 -0.41590872 -159.43896 -159.43896 -87.886429 -87.886429 -6.5174909 0 0 -159.53877 -66.769768 -66.769768 66.925415 -6.5174909 -56.859356 -56.859356 -144.07971 -144.07971 -89.983345 0 0 0 0 0 0 -89.983345 17.191561 17.191561 -0.097951628 -0.097951628 27.68096 0 0 0 0 0 0 0 0 0 0 0 0 0 0 0 0 0 0 66.925415 -92.056152 0 0 0 0 0 0 -92.056152 46.682076 46.682076 -66.825012 -66.825012 67.22068 0 0 0 0 0 0 67.22068 -0.03382593 -0.03382593 119.89654 
740000000 -0.4263182 -170.87355 -170.87355 -86.261314 -86.261314 10.086307 0 0 -170.96228 -66.598007 -66.598007 60.713688 10.086307 -58.070034 -58.070034 -150.36391 -150.36391 -85.841171 0 0 0 0 0 0 -85.841171 19.500549 19.500549 -0.10336926 -0.10336926 24.221693 0 0 0 0 0 0 0 0 0 0 0 0 0 0 0 0 0 0 60.713688 -90.222557 0 0 0 0 0 0 -90.222557 21.776163 21.776163 -66.562912 -66.562912 60.808014 0 0 0 0 0 0 60.808014 -0.034047358 -0.034047358 119.08079 
750000000 -0.43494105 177.53345 177.53345 -82.37645 -82.37645 10.289553 0 0 177.45296 -66.57225 -66.57225 55.011009 10.289553 -59.611298 -59.611298 -156.24606 -156.24606 -82.992668 0 0 0 0 0 0 -82.992668 5.0896935 5.0896935 -0.10765375 -0.10765375 20.646673 0 0 0 0 0 0 0 0 0 0 0 0 0 0 0 0 0 0 55.011009 -91.647095 0 0 0 0 0 0 -91.647095 3.2480605 3.2480605 -66.682701 -66.682701 54.436634 0 0 0 0 0 0 54.436634 -0.033909421 -0.033909421 118.26424 
760000000 -0.4410046 165.8429 165.8429 -80.776627 -80.776627 -1.7578748 0 0 165.76447 -66.549187 -66.549187 46.115639 -1.7578748 -61.669189 -61.669189 -163.02307 -163.02307 -81.027557 0 0 0 0 0 0 -81.027557 0.63838059 0.63838059 -0.11453387 -0.11453387 16.951513 0 0 0 0 0 0 0 0 0 0 0 0 0 0 0 0 0 0 46.115639 -89.349617 0 0 0 0 0 0 -89.349617 -10.073223 -10.073223 -66.712982 -66.712982 45.935181 0 0 0 0 0 0 45.935181 -0.034697309 -0.034697309 117.4472 
770000000 -0.44366091 154.10306 154.10306 -78.137505 -78.137505 -7.0275807 0 0 154.02264 -67.142372 -67.142372 38.652946 -7.0275807 -64.565079 -64.565079 -167.82773 -167.82773 -78.471848 0 0 0 0 0 0 -78.471848 -8.358943 -8.358943 -0.12086934 -0.12086934 13.120088 0 0 0 0 0 0 0 0 0 0 0 0 0 0 0 0 0 0 38.652946 -84.162254 0 0 0 0 0 0 -84.162254 -24.504726 -24.504726 -67.239357 -67.239357 36.40583 0 0 0 0 0 0 36.40583 -0.03510128 -0.03510128 116.63503 
780000000 -0.44267374 142.37787 142.37787 -77.240807 -77.240807 -15.571273 0 0 142.28891 -67.987656 -67.987656 30.409801 -15.571273 -68.928452 -68.928452 -167.56419 -167.56419 -77.19796 0 0 0 0 0 0 -77.19796 -16.188347 -16.188347 -0.1275336 -0.1275336 9.1371508 0 0 0 0 0 0 0 0 0 0 0 0 0 0 0 0 0 0 30.409801 -82.084373 0 0 0 0 0 0 -82.084373 -62.500793 -62.500793 -67.759247 -67.759247 30.216938 0 0 0 0 0 0 30.216938 -0.03521616 -0.03521616 115.81914 
790000000 -0.43880513 130.72542 130.72542 -75.831589 -75.831589 -24.084805 0 0 130.6194 -68.655258 -68.655258 25.891445 -24.084805 -77.643875 -77.643875 -153.29619 -153.29619 -76.29467 0 0 0 0 0 0 -76.29467 -24.776239 -24.776239 -0.13514996 -0.13514996 4.9897642 0 0 0 0 0 0 0 0 0 0 0 0 0 0 0 0 0 0 25.891445 -81.521912 0 0 0 0 0 0 -81.521912 -103.43012 -103.43012 -68.710922 -68.710922 24.718359 0 0 0 0 0 0 24.718359 -0.035241835 -0.035241835 115.00561 
800000000 -0.43273738 119.19053 119.19053 -75.697075 -75.697075 -28.303524 0 0 119.07307 -69.435173 -69.435173 21.77037 -28.303524 -76.610352 -76.610352 -42.569721 -42.569721 -75.247635 0 0 0 0 0 0 -75.247635 -29.903187 -29.903187 -0.14414085 -0.14414085 0.66677618 0 0 0 0 0 0 0 0 0 0 0 0 0 0 0 0 0 0 21.77037 -80.868614 0 0 0 0 0 0 -80.868614 -134.89905 -134.89905 -69.284645 -69.284645 22.891386 0 0 0 0 0 0 22.891386 -0.035690125 -0.035690125 114.19526 
810000000 -0.42471987 107.82018 107.82018 -75.55423 -75.55423 -36.464554 0 0 107.69839 -70.443604 -70.443604 17.100788 -36.464554 -68.338501 -68.338501 -28.033747 -28.033747 -75.796501 0 0 0 0 0 0 -75.796501 -33.346527 -33.346527 -0.15330763 -0.15330763 -3.8566911 0 0 0 0 0 0 0 0 0 0 0 0 0 0 0 0 0 0 17.100788 -83.021027 0 0 0 0 0 0 -83.021027 -155.19783 -155.19783 -70.406876 -70.406876 17.121603 0 0 0 0 0 0 17.121603 -0.036730252 -0.036730252 113.37711 
820000000 -0.41605279 96.649773 96.649773 -76.653069 -76.653069 -41.784077 0 0 96.529869 -71.174736 -71.174736 12.63001 -41.784077 -63.856804 -63.856804 -30.801323 -30.801323 -76.524925 0 0 0 0 0 0 -76.524925 -39.963703 -39.963703 -0.16345005 -0.16345005 -8.6004467 0 0 0 0 0 0 0 0 0 0 0 0 0 0 0 0 0 0 12.63001 -82.279121 0 0 0 0 0 0 -82.279121 -174.33446 -174.33446 -71.47506 -71.47506 13.54292 0 0 0 0 0 0 13.54292 -0.037170127 -0.037170127 112.55864 
830000000 -0.40708286 85.711868 85.711868 -78.238884 -78.238884 -46.299633 0 0 85.593361 -72.182251 -72.182251 8.063427 -46.299633 -60.88113 -60.88113 -36.088413 -36.088413 -78.424576 0 0 0 0 0 0 -78.424576 -49.590694 -49.590694 -0.17498329 -0.17498329 -13.583508 0 0 0 0 0 0 0 0 0 0 0 0 0 0 0 0 0 0 8.063427 -82.532852 0 0 0 0 0 0 -82.532852 171.48471 171.48471 -72.279976 -72.279976 10.112236 0 0 0 0 0 0 10.112236 -0.037229847 -0.037229847 111.73924 
840000000 -0.39815918 75.025848 75.025848 -82.155655 -82.155655 -45.068409 0 0 74.909416 -73.474854 -73.474854 2.8658528 -45.068409 -58.818081 -58.818081 -41.607891 -41.607891 -82.482506 0 0 0 0 0 0 -82.482506 -49.387875 -49.387875 -0.18746394 -0.18746394 -18.835604 0 0 0 0 0 0 0 0 0 0 0 0 0 0 0 0 0 0 2.8658528 -85.519966 0 0 0 0 0 0 -85.519966 136.74272 136.74272 -73.407333 -73.407333 4.7962146 0 0 0 0 0 0 4.7962146 -0.036801007 -0.036801007 110.91956 
850000000 -0.38759229 64.602051 64.602051 -92.209816 -92.209816 3.4319358 0 0 64.486435 -74.928612 -74.928612 0.61242169 3.4319358 -57.128109 -57.128109 -47.332542 -47.332542 -92.715858 0 0 0 0 0 0 -92.715858 15.497409 15.497409 -0.20254482 -0.20254482 -24.384232 0 0 0 0 0 0 0 0 0 0 0 0 0 0 0 0 0 0 0.61242169 -88.253372 0 0 0 0 0 0 -88.253372 123.79214 123.79214 -74.946617 -74.946617 -0.77478069 0 0 0 0 0 0 -0.77478069 -0.037821315 -0.037821315 110.09855 
860000000 -0.37812579 54.428608 54.428608 -81.115967 -81.115967 83.78373 0 0 54.310143 -76.975723 -76.975723 -7.5025678 83.78373 -55.761448 -55.761448 -53.161224 -53.161224 -81.969841 0 0 0 0 0 0 -81.969841 83.266808 83.266808 -0.2188089 -0.2188089 -30.294607 0 0 0 0 0 0 0 0 0 0 0 0 0 0 0 0 0 0 -7.5025678 -96.872734 0 0 0 0 0 0 -96.872734 -172.75887 -172.75887 -77.463829 -77.463829 -7.8166718 0 0 0 0 0 0 -7.8166718 -0.037799317 -0.037799317 109.27547 
870000000 -0.3676303 44.502983 44.502983 -74.501854 -74.501854 81.56636 0 0 44.378513 -79.854347 -79.854347 -13.426129 81.56636 -54.58971 -54.58971 -58.992603 -58.992603 -74.590965 0 0 0 0 0 0 -74.590965 83.448891 83.448891 -0.23826641 -0.23826641 -36.606052 0 0 0 0 0 0 0 0 0 0 0 0 0 0 0 0 0 0 -13.426129 -88.819054 0 0 0 0 0 0 -88.819054 -156.5643 -156.5643 -81.07254 -81.07254 -12.492111 0 0 0 0 0 0 -12.492111 -0.03808346 -0.03808346 108.45664 
880000000 -0.35974336 34.801876 34.801876 -70.228905 -70.228905 79.454628 0 0 34.670185 -88.478172 -88.478172 -7.1723952 79.454628 -53.60614 -53.60614 -64.527565 -64.527565 -70.199005 0 0 0 0 0 0 -70.199005 79.218781 79.218781 -0.26084867 -0.26084867 -43.383995 0 0 0 0 0 0 0 0 0 0 0 0 0 0 0 0 0 0 -7.1723952 -86.319542 0 0 0 0 0 0 -86.319542 -163.84749 -163.84749 -86.871323 -86.871323 -5.6107492 0 0 0 0 0 0 -5.6107492 -0.036712665 -0.036712665 107.64507 
890000000 -0.35341442 25.306084 25.306084 -67.527992 -67.527992 74.817802 0 0 25.165422 -96.499672 -96.499672 106.08638 74.817802 -52.701618 -52.701618 -70.439682 -70.439682 -67.60955 0 0 0 0 0 0 -67.60955 74.867783 74.867783 -0.28874871 -0.28874871 -50.70211 0 0 0 0 0 0 0 0 0 0 0 0 0 0 0 0 0 0 106.08638 -84.364395 0 0 0 0 0 0 -84.364395 173.21449 173.21449 -100.33667 -100.33667 59.180748 0 0 0 0 0 0 59.180748 -0.036620282 -0.036620282 106.83147 
900000000 -0.34814179 15.979134 15.979134 -65.966133 -65.966133 68.793968 0 0 15.831404 -84.772514 -84.772514 141.90939 68.793968 -51.917892 -51.917892 -75.807686 -75.807686 -66.071404 0 0 0 0 0 0 -66.071404 69.128235 69.128235 -0.32051191 -0.32051191 -58.658916 0 0 0 0 0 0 0 0 0 0 0 0 0 0 0 0 0 0 141.90939 -83.448212 0 0 0 0 0 0 -83.448212 161.17722 161.17722 -84.744621 -84.744621 136.92444 0 0 0 0 0 0 136.92444 -0.036827661 -0.036827661 106.01667 
910000000 -0.34487852 6.7724872 6.7724872 -66.106567 -66.106567 64.634598 0 0 6.6245751 -79.421448 -79.421448 134.00783 64.634598 -51.216217 -51.216217 -81.56282 -81.56282 -66.037224 0 0 0 0 0 0 -66.037224 65.118141 65.118141 -0.35768628 -0.35768628 -67.371567 0 0 0 0 0 0 0 0 0 0 0 0 0 0 0 0 0 0 134.00783 -82.060219 0 0 0 0 0 0 -82.060219 151.23868 151.23868 -79.717224 -79.717224 135.23912 0 0 0 0 0 0 135.23912 -0.036910083 -0.036910083 105.20805 
920000000 -0.34458676 -2.347203 -2.347203 -69.39933 -69.39933 72.3564 0 0 -2.4919198 -75.90329 -75.90329 134.48993 72.3564 -50.554932 -50.554932 -86.998245 -86.998245 -69.445282 0 0 0 0 0 0 -69.445282 71.918213 71.918213 -0.40292981 -0.40292981 -76.986588 0 0 0 0 0 0 0 0 0 0 0 0 0 0 0 0 0 0 134.48993 -82.935394 0 0 0 0 0 0 -82.935394 146.75323 146.75323 -76.510727 -76.510727 131.80125 0 0 0 0 0 0 131.80125 -0.036053237 -0.036053237 104.39559 
930000000 -0.34753418 -11.422445 -11.422445 -68.994881 -68.994881 168.13158 0 0 -11.569089 -73.522247 -73.522247 127.35526 168.13158 -49.946259 -49.946259 -92.476242 -92.476242 -68.939873 0 0 0 0 0 0 -68.939873 169.41933 169.41933 -0.45669755 -0.45669755 -87.689995 0 0 0 0 0 0 0 0 0 0 0 0 0 0 0 0 0 0 127.35526 -84.141655 0 0 0 0 0 0 -84.141655 137.65515 137.65515 -73.403008 -73.403008 130.38847 0 0 0 0 0 0 130.38847 -0.036462288 -0.036462288 103.58204 
940000000 -0.35234839 -20.517307 -20.517307 -56.65638 -56.65638 -171.77496 0 0 -20.601606 -71.851585 -71.851585 124.29293 -171.77496 -49.376152 -49.376152 -98.12075 -98.12075 -56.614815 0 0 0 0 0 0 -56.614815 -171.67064 -171.67064 -0.52347422 -0.52347422 -99.717171 0 0 0 0 0 0 0 0 0 0 0 0 0 0 0 0 0 0 124.29293 -83.558678 0 0 0 0 0 0 -83.558678 131.26476 131.26476 -71.820297 -71.820297 124.81862 0 0 0 0 0 0 124.81862 -0.03681656 -0.03681656 102.77044 
950000000 -0.36108008 -29.680735 -29.680735 -48.469715 -48.469715 -177.16168 0 0 -29.769804 -70.135223 -70.135223 120.60612 -177.16168 -48.838299 -48.838299 -103.64606 -103.64606 -48.46944 0 0 0 0 0 0 -48.46944 -177.00998 -177.00998 -0.60534608 -0.60534608 -113.39184 0 0 0 0 0 0 0 0 0 0 0 0 0 0 0 0 0 0 120.60612 -83.947845 0 0 0 0 0 0 -83.947845 127.13773 127.13773 -69.985374 -69.985374 120.77042 0 0 0 0 0 0 120.77042 -0.03670942 -0.03670942 101.9606 
960000000 -0.37308621 -38.991413 -38.991413 -41.877796 -41.877796 172.80373 0 0 -39.077934 -68.891731 -68.891731 115.77454 172.80373 -48.342117 -48.342117 -109.48033 -109.48033 -41.890797 0 0 0 0 0 0 -41.890797 172.91646 172.91646 -0.70907944 -0.70907944 -129.10637 0 0 0 0 0 0 0 0 0 0 0 0 0 0 0 0 0 0 115.77454 -84.472504 0 0 0 0 0 0 -84.472504 134.31955 134.31955 -68.693176 -68.693176 116.66418 0 0 0 0 0 0 116.66418 -0.036873687 -0.036873687 101.14806 
970000000 -0.39186016 -48.544556 -48.544556 -36.075069 -36.075069 160.17709 0 0 -48.631649 -67.390289 -67.390289 111.39275 160.17709 -47.84227 -47.84227 -115.49291 -115.49291 -36.080997 0 0 0 0 0 0 -36.080997 160.27342 160.27342 -0.83754593 -0.83754593 -147.37791 0 0 0 0 0 0 0 0 0 0 0 0 0 0 0 0 0 0 111.39275 -83.420837 0 0 0 0 0 0 -83.420837 117.52995 117.52995 -67.580055 -67.580055 111.12308 0 0 0 0 0 0 111.12308 -0.037143998 -0.037143998 100.33685 
980000000 -0.4194133 -58.462791 -58.462791 -30.73773 -30.73773 145.30371 0 0 -58.550716 -66.368256 -66.368256 106.47744 145.30371 -47.369282 -47.369282 -121.40894 -121.40894 -30.738649 0 0 0 0 0 0 -30.738649 145.41228 145.41228 -1.0001875 -1.0001875 -168.8018 0 0 0 0 0 0 0 0 0 0 0 0 0 0 0 0 0 0 106.47744 -85.972878 0 0 0 0 0 0 -85.972878 118.52435 118.52435 -66.488472 -66.488472 106.79023 0 0 0 0 0 0 106.79023 -0.037104532 -0.037104532 99.526108 
990000000 -0.46249318 -68.914803 -68.914803 -25.736536 -25.736536 128.05054 0 0 -69.03083 -65.286835 -65.286835 100.18398 128.05054 -46.89727 -46.89727 -127.79327 -127.79327 -25.737228 0 0 0 0 0 0 -25.737228 128.13895 128.13895 -1.2013344 -1.2013344 165.97964 0 0 0 0 0 0 0 0 0 0 0 0 0 0 0 0 0 0 100.18398 -84.784088 0 0 0 0 0 0 -84.784088 127.33071 127.33071 -65.439651 -65.439651 100.92007 0 0 0 0 0 0 100.92007 -0.038009927 -0.038009927 98.714249 
1000000000 -0.53717625 -80.139923 -80.139923 -21.049856 -21.049856 108.20157 0 0 -80.404472 -64.353615 -64.353615 93.729034 108.20157 -46.433983 -46.433983 -134.60663 -134.60663 -21.048712 0 0 0 0 0 0 -21.048712 108.28347 108.28347 -1.4465905 -1.4465905 136.45798 0 0 0 0 0 0 0 0 0 0 0 0 0 0 0 0 0 0 93.729034 -81.990204 0 0 0 0 0 0 -81.990204 114.37052 114.37052 -64.235161 -64.235161 94.405037 0 0 0 0 0 0 94.405037 -0.038234409 -0.038234409 97.902946 
1010000000 -0.67868835 -92.441139 -92.441139 -16.71386 -16.71386 85.645958 0 0 -93.356316 -63.564167 -63.564167 86.801895 85.645958 -46.003105 -46.003105 -142.20099 -142.20099 -16.708971 0 0 0 0 0 0 -16.708971 85.724518 85.724518 -1.7447274 -1.7447274 102.54253 0 0 0 0 0 0 0 0 0 0 0 0 0 0 0 0 0 0 86.801895 -83.608032 0 0 0 0 0 0 -83.608032 81.791695 81.791695 -63.63409 -63.63409 86.586601 0 0 0 0 0 0 86.586601 -0.039081611 -0.039081611 97.092323 
1020000000 -0.95276636 -106.14624 -106.14624 -12.794757 -12.794757 60.505554 0 0 -109.93644 -62.910854 -62.910854 77.253021 60.505554 -45.643742 -45.643742 -150.55109 -150.55109 -12.787956 0 0 0 0 0 0 -12.787956 60.574993 60.574993 -2.1310396 -2.1310396 64.831169 0 0 0 0 0 0 0 0 0 0 0 0 0 0 0 0 0 0 77.253021 -91.282333 0 0 0 0 0 0 -91.282333 75.187706 75.187706 -62.910107 -62.910107 77.791145 0 0 0 0 0 0 77.791145 -0.04003026 -0.04003026 96.276382 
1030000000 -1.4745928 -121.53894 -121.53894 -9.3672943 -9.3672943 33.12635 0 0 -138.85225 -63.296322 -63.296322 61.631844 33.12635 -45.424782 -45.424782 -160.03499 -160.03499 -9.3574934 0 0 0 0 0 0 -9.3574934 33.181725 33.181725 -2.7076261 -2.7076261 24.52244 0 0 0 0 0 0 0 0 0 0 0 0 0 0 0 0 0 0 61.631844 -90.912521 0 0 0 0 0 0 -90.912521 -148.00288 -148.00288 -63.270626 -63.270626 61.870975 0 0 0 0 0 0 61.870975 -0.041255999 -0.041255999 95.458313 
1040000000 -2.4219954 -138.61867 -138.61867 -6.499537 -6.499537 3.9848685 0 0 -103.11696 -63.56855 -63.56855 77.182426 3.9848685 -45.433834 -45.433834 -170.26436 -170.26436 -6.4886241 0 0 0 0 0 0 -6.4886241 4.0153041 4.0153041 -3.6786611 -3.6786611 -17.11058 0 0 0 0 0 0 0 0 0 0 0 0 0 0 0 0 0 0 77.182426 -86.305817 0 0 0 0 0 0 -86.305817 144.29019 144.29019 -63.52626 -63.52626 77.920837 0 0 0 0 0 0 77.920837 -0.042573586 -0.042573586 94.634918 
1050000000 -4.0375104 -156.71225 -156.71225 -4.2672892 -4.2672892 -26.199146 0 0 -131.92647 -61.989697 -61.989697 66.977837 -26.199146 -45.779198 -45.779198 179.28294 179.28294 -4.257266 0 0 0 0 0 0 -4.257266 -26.195995 -26.195995 -5.3394384 -5.3394384 -59.115944 0 0 0 0 0 0 0 0 0 0 0 0 0 0 0 0 0 0 66.977837 -86.077415 0 0 0 0 0 0 -86.077415 151.06459 151.06459 -61.905926 -61.905926 66.698112 0 0 0 0 0 0 66.698112 -0.04252398 -0.04252398 93.814964 
1060000000 -6.5636621 -174.01256 -174.01256 -2.7133043 -2.7133043 -56.269478 0 0 -156.32941 -61.462696 -61.462696 54.689842 -56.269478 -46.491062 -46.491062 169.79459 169.79459 -2.706516 0 0 0 0 0 0 -2.706516 -56.280865 -56.280865 -8.021307 -8.021307 -100.89941 0 0 0 0 0 0 0 0 0 0 0 0 0 0 0 0 0 0 54.689842 -84.92524 0 0 0 0 0 0 -84.92524 147.44778 147.44778 -61.425674 -61.425674 55.084991 0 0 0 0 0 0 55.084991 -0.042895447 -0.042895447 92.991814 
1070000000 -10.165239 172.65872 172.65872 -1.7788305 -1.7788305 -84.848427 0 0 175.71899 -61.376266 -61.376266 41.492462 -84.848427 -47.435036 -47.435036 162.46982 162.46982 -1.7738097 0 0 0 0 0 0 -1.7738097 -84.864296 -84.864296 -12.054181 -12.054181 -142.92087 0 0 0 0 0 0 0 0 0 0 0 0 0 0 0 0 0 0 41.492462 -84.81031 0 0 0 0 0 0 -84.81031 156.90894 156.90894 -61.404427 -61.404427 41.597298 0 0 0 0 0 0 41.597298 -0.043777686 -0.043777686 92.170746 
