!Keysight Technologies,N5227B,US58420583,A.13.95.07
!Date: Wednesday, April 06, 2022 15:01:25
!Correction: S11(Full 3 Port(1,2,3)) 
!S12(Full 3 Port(1,2,3)) 
!S13(Full 3 Port(1,2,3)) 
!S21(Full 3 Port(1,2,3)) 
!S22(Full 3 Port(1,2,3)) 
!S23(Full 3 Port(1,2,3)) 
!S31(Full 3 Port(1,2,3)) 
!S32(Full 3 Port(1,2,3)) 
!S33(Full 3 Port(1,2,3)) 
!S3P File: Measurements: <S11,S12,S13>,
!<S21,S22,S23>,
!<S31,S32,S33>:
# Hz S  dB   R 50
650000000 -0.29898885 -76.783577 -70.901642 98.812126 -68.381874 106.2408
-70.845566 100.8661 -0.067901254 120.93304 -60.317478 3.4560871
-68.62796 105.12725 -60.479664 3.310729 -0.052338954 124.01662
660000000 -0.30886805 -86.275749 -71.435051 91.223419 -68.429428 100.11716
-71.0867 94.369354 -0.070839688 120.04488 -59.59362 -6.8691807
-68.623192 98.911819 -59.648418 -6.7470007 -0.054245707 123.17642
670000000 -0.32096612 -95.985405 -70.412323 91.942207 -68.235596 95.669456
-70.281982 92.091606 -0.070525408 119.18027 -60.814949 -11.39758
-68.081917 95.643379 -60.801201 -10.928082 -0.054418795 122.34692
680000000 -0.33415145 -105.93445 -70.372978 83.807465 -68.21199 89.696861
-69.859344 84.618843 -0.069474757 118.29687 -61.366341 -12.200094
-68.1726 89.079979 -61.382587 -12.674466 -0.054405075 121.51578
690000000 -0.34666044 -116.15033 -69.642815 82.707703 -67.823082 86.615189
-69.37693 82.741997 -0.067602828 117.40755 -61.581337 -8.9002724
-67.708023 86.327957 -61.602161 -10.255143 -0.055812933 120.68777
700000000 -0.36070728 -126.63008 -68.917259 78.492874 -67.100266 81.196632
-68.448524 79.034416 -0.067528419 116.5102 -60.977253 -10.5509
-67.276314 80.82798 -61.077972 -10.839938 -0.056310415 119.86124
710000000 -0.37427258 -137.37662 -68.032089 72.137299 -67.169716 72.513268
-68.22274 70.649048 -0.068961143 115.62259 -60.973026 -16.208941
-67.314194 72.333923 -61.208519 -16.657665 -0.05660677 119.03319
720000000 -0.38793549 -148.3696 -67.499802 66.634972 -67.187225 70.222382
-67.287987 67.738823 -0.069064744 114.73356 -61.866589 -20.723087
-67.112053 69.63707 -62.029018 -20.487289 -0.056920875 118.2027
730000000 -0.39862022 -159.59534 -66.98629 60.188904 -66.974594 62.960228
-67.026306 59.830101 -0.068649761 113.83764 -62.586746 -16.644926
-67.016273 64.090744 -62.671963 -15.615553 -0.056994189 117.36399
740000000 -0.4077692 -171.02228 -66.511986 55.889465 -66.901215 58.260136
-66.418274 53.64188 -0.06913805 112.9397 -62.288052 -12.945809
-66.910881 58.512783 -62.288544 -11.79122 -0.058761671 116.52744
750000000 -0.41530046 177.39452 -66.184654 50.418377 -66.941368 53.962032
-66.141884 50.442406 -0.070001058 112.04288 -61.571556 -15.076359
-67.160446 53.556732 -61.512451 -14.998461 -0.059720162 115.68636
760000000 -0.42171687 165.71161 -65.411446 45.040001 -66.696991 48.611732
-65.609314 44.035675 -0.071003512 111.15133 -61.438999 -20.489923
-66.7519 47.892704 -61.63324 -18.464478 -0.061000131 114.85181
770000000 -0.42527184 153.97275 -64.940063 36.799629 -66.839371 40.22636
-64.80043 36.852158 -0.071270756 110.26114 -61.926121 -22.338772
-66.778976 40.734356 -61.858139 -21.768333 -0.062170208 114.01448
780000000 -0.42671055 142.24623 -64.94516 27.112949 -67.4328 31.35759
-64.817039 26.610432 -0.071357854 109.36705 -62.279015 -21.898018
-67.371208 30.493263 -62.169029 -20.122862 -0.062674791 113.18113
790000000 -0.42517471 130.58507 -65.134689 21.49707 -68.179306 24.719015
-65.220322 21.155693 -0.071210459 108.47738 -62.585213 -21.859598
-68.241508 23.62088 -62.326122 -21.158257 -0.063292824 112.36053
800000000 -0.4218446 119.04778 -65.278923 15.958653 -69.266296 18.333004
-65.512764 15.310287 -0.071524262 107.58891 -62.662521 -20.363394
-69.285866 18.036018 -62.329662 -19.920977 -0.063260742 111.54589
810000000 -0.41578278 107.6777 -65.293152 11.03231 -70.13353 14.645585
-65.397331 10.531323 -0.072418585 106.69307 -62.448017 -18.630934
-70.41153 12.156716 -62.129299 -19.846437 -0.06321907 110.72737
820000000 -0.40853041 96.514587 -65.401131 6.4540434 -71.388138 11.761238
-65.484497 6.0004334 -0.073067471 105.79301 -61.848309 -18.195408
-71.501862 10.343062 -61.86565 -19.051697 -0.063724846 109.91693
830000000 -0.40069002 85.585861 -65.532288 1.2402098 -72.75634 9.0445385
-65.480965 2.1156034 -0.073367015 104.89194 -61.361813 -19.815096
-72.714508 9.8324623 -61.317173 -19.934288 -0.064225405 109.11027
840000000 -0.39277959 74.910789 -65.418434 -1.8984767 -73.273865 6.8429184
-65.493423 -1.5076025 -0.073204271 103.99439 -60.958981 -24.060108
-73.590385 8.9913864 -60.977299 -24.258875 -0.064865127 108.29779
850000000 -0.38360819 64.494766 -65.496078 -8.5604525 -75.182144 4.9625626
-65.417244 -7.0791106 -0.074596606 103.09732 -61.118507 -28.041122
-75.261848 3.2689929 -61.045143 -28.471834 -0.065366842 107.48247
860000000 -0.37613317 54.326721 -65.440308 -13.493302 -76.817459 1.961498
-65.422958 -12.361442 -0.074354447 102.20117 -61.517582 -29.774794
-76.852501 -0.71393955 -61.35482 -31.705111 -0.066237018 106.66253
870000000 -0.36747923 44.402359 -65.412674 -17.479292 -79.053299 -1.2315027
-65.469109 -17.355127 -0.074470438 101.30397 -61.670479 -31.746828
-79.127045 -0.87389165 -61.627018 -32.242516 -0.067992017 105.84219
880000000 -0.36078662 34.697098 -65.473747 -24.737637 -83.752518 -11.172896
-65.581108 -25.449316 -0.073335946 100.41545 -61.704094 -30.330353
-84.383942 -5.3158908 -61.881191 -31.887022 -0.068474218 105.02465
890000000 -0.35584611 25.193079 -65.898888 -30.062983 -94.836601 22.483337
-65.75016 -30.648207 -0.072982207 99.52317 -61.543056 -29.358736
-97.736282 14.421335 -61.715561 -29.993385 -0.068995096 104.21158
900000000 -0.3509357 15.859324 -66.29715 -36.39019 -85.606102 133.05347
-66.402672 -35.592125 -0.072986357 98.625336 -60.849167 -31.37985
-86.190048 140.95026 -61.115532 -31.068399 -0.069417067 103.39242
910000000 -0.34784904 6.6487751 -66.696152 -41.363556 -79.558502 137.51324
-66.7985 -40.413979 -0.073924735 97.735985 -60.439526 -35.662987
-79.582123 134.8799 -60.573128 -34.654999 -0.06987197 102.5817
920000000 -0.34776402 -2.4726276 -67.245453 -45.316689 -75.885933 130.65866
-67.222923 -44.598724 -0.073750727 96.843834 -60.481949 -40.621994
-76.309021 129.51019 -60.408245 -39.956944 -0.070661016 101.77294
930000000 -0.35160229 -11.55934 -67.794861 -48.788273 -73.732857 122.94712
-67.697601 -48.874664 -0.074057683 95.952271 -60.733849 -44.352627
-73.632179 125.8823 -60.719536 -44.679451 -0.071308717 100.96416
940000000 -0.35656071 -20.59865 -68.185173 -54.43816 -71.897797 120.46265
-68.060753 -52.074005 -0.074687473 95.063362 -61.035049 -48.998024
-72.048538 122.06647 -61.118866 -48.363232 -0.072284438 100.15841
950000000 -0.36190382 -29.779228 -68.759674 -58.077217 -70.16993 117.81332
-68.743408 -59.900097 -0.074564129 94.171814 -61.440079 -51.434608
-70.625366 116.45855 -61.465427 -51.058399 -0.073900066 99.345856
960000000 -0.37228039 -39.099434 -69.44693 -64.668236 -69.023193 112.7183
-69.353996 -64.744255 -0.074850656 93.279259 -62.262714 -52.815804
-69.027283 113.16472 -62.155636 -52.422024 -0.075262219 98.532661
970000000 -0.38851058 -48.667305 -70.690857 -69.146149 -67.742744 108.67738
-70.758949 -68.517654 -0.074657716 92.384193 -62.523769 -50.815674
-67.726578 108.38094 -62.58091 -51.836166 -0.076090015 97.716286
980000000 -0.41191891 -58.605591 -71.814438 -74.138222 -66.802925 103.17127
-71.949547 -71.810516 -0.074880049 91.487373 -62.852119 -49.23341
-66.795746 103.33945 -62.824482 -50.537819 -0.076303199 96.902534
990000000 -0.44606984 -69.108711 -73.510635 -78.767738 -65.646675 98.725227
-73.717087 -79.790916 -0.07523866 90.589561 -62.841133 -47.461216
-65.754593 99.898003 -63.006454 -48.56834 -0.076502964 96.089073
1000000000 -0.50041389 -80.508324 -76.90168 -82.392776 -64.560913 92.648033
-76.666977 -78.782494 -0.075556122 89.691177 -62.370865 -45.90789
-64.55056 93.270966 -62.49453 -45.605598 -0.076290727 95.277863
1010000000 -0.60854131 -93.495575 -80.95929 -61.907326 -63.714012 84.364906
-80.405266 -65.914146 -0.076592341 88.796494 -62.013721 -48.641651
-63.761112 84.628159 -62.060974 -47.755898 -0.076152787 94.477287
1020000000 -0.92849171 -110.12679 -82.801514 -8.3459158 -63.083977 74.92688
-82.938026 -16.770391 -0.077597909 87.89418 -62.190823 -49.58255
-63.11718 75.159332 -62.19157 -49.220146 -0.075890005 93.681015
1030000000 -4.0355954 -139.16617 -73.257347 8.1675653 -63.56673 58.103943
-72.966774 7.4862638 -0.078971043 86.987228 -61.993099 -50.312408
-63.572918 58.178623 -62.04174 -48.84388 -0.075661026 92.884605
1040000000 -2.2727439 -103.41249 -76.787209 -57.556755 -64.006447 75.37278
-76.735054 -54.690552 -0.080623619 86.074959 -61.716393 -50.036148
-64.009369 76.436897 -61.700684 -49.758904 -0.076120764 92.091156
1050000000 -1.0993848 -132.16872 -81.980141 20.911699 -62.270527 65.397964
-80.671066 27.499655 -0.08163058 85.168159 -61.512463 -52.150105
-62.360214 65.098892 -61.328594 -51.903744 -0.07651861 91.290443
1060000000 -1.1140724 -156.58174 -73.882111 35.692169 -61.818756 53.485882
-73.382614 34.774101 -0.08187215 84.258415 -61.116047 -54.823181
-61.803143 53.712486 -61.139393 -54.554947 -0.077613965 90.492256
1070000000 -1.3550287 175.47688 -68.885612 25.916418 -61.895508 40.984142
-69.144905 27.629169 -0.083059847 83.351128 -61.04805 -57.731575
-61.855797 41.357975 -60.971481 -57.80114 -0.079856291 89.691093
1080000000 -1.7527306 140.09674 -65.82328 14.885974 -62.44891 27.504002
-65.66906 15.066878 -0.083474681 82.446449 -61.101349 -61.635845
-62.491676 27.10387 -61.086071 -61.182991 -0.081081443 88.893227
1090000000 -2.1830771 94.699104 -63.148487 -5.4445133 -64.361496 9.8987875
-63.187878 -4.94736 -0.083065748 81.546638 -61.143906 -64.206078
-64.348465 10.152187 -60.97176 -64.510979 -0.081469364 88.098137
1100000000 -2.3113523 42.133648 -62.165894 -30.815802 -70.212677 -4.1132226
-62.235626 -30.954012 -0.082328953 80.644257 -61.373383 -65.793755
-70.030701 -5.2977014 -61.33519 -66.602188 -0.081119254 87.304031
1110000000 -2.0177257 -7.8466911 -62.922199 -54.535057 -77.627159 77.545746
-62.85358 -54.124992 -0.082059816 79.737862 -61.549702 -70.169823
-77.930855 76.575943 -61.40192 -70.567101 -0.079617701 86.514091
1120000000 -1.6235689 -48.833092 -64.770302 -73.542862 -67.513504 96.766502
-64.868416 -73.877502 -0.082152657 78.836281 -61.903873 -71.763855
-67.659966 96.370544 -61.835163 -72.391045 -0.077467747 85.721924
1130000000 -1.3374606 -81.622116 -67.541924 -87.615059 -63.610859 84.733353
-67.56369 -86.956871 -0.08125183 77.927544 -62.093342 -72.213799
-63.647697 84.234497 -61.930111 -71.848534 -0.076103047 84.930634
1140000000 -1.1719249 -109.11641 -71.606941 -98.619843 -61.746483 71.937256
-71.572906 -96.702888 -0.08113949 77.015007 -62.01268 -70.03373
-61.688305 71.997971 -61.958523 -70.276779 -0.074600272 84.134956
1150000000 -1.0932155 -133.70406 -77.704552 -94.51368 -60.627712 59.14381
-77.392921 -91.569969 -0.081522793 76.100449 -61.729534 -69.931252
-60.568161 59.545345 -61.833824 -70.394989 -0.075561248 83.343109
1160000000 -1.0725658 -156.98587 -82.341309 -6.8367491 -59.94664 48.467911
-81.688637 -12.649811 -0.082084924 75.187805 -61.362759 -71.750931
-59.982655 48.379253 -61.479122 -71.753166 -0.076569855 82.549049
1170000000 -1.0906733 179.9537 -73.664856 11.328987 -59.655567 36.990376
-73.826111 8.224679 -0.082350224 74.281174 -60.869755 -74.30925
-59.702679 37.077164 -60.948082 -74.05127 -0.078263268 81.756485
1180000000 -1.1363993 156.38597 -69.094254 6.3700662 -59.659275 25.755903
-69.076775 6.7612629 -0.082745582 73.379669 -60.686863 -79.330254
-59.676861 25.318569 -60.781338 -78.821579 -0.079965785 80.965378
1190000000 -1.1974782 131.83052 -66.445465 -3.0214307 -60.167698 13.439949
-66.587868 -2.7758718 -0.083303638 72.473763 -60.929424 -84.017448
-60.169823 13.200994 -60.803791 -84.361252 -0.080148593 80.175285
1200000000 -1.2633786 106.05176 -64.538803 -11.81032 -61.149956 1.8303424
-64.544388 -11.796217 -0.083841339 71.575546 -61.272297 -87.524979
-61.129105 1.7632716 -61.228085 -87.809799 -0.079659849 79.386353
1210000000 -1.3223774 79.071167 -63.018959 -22.395916 -62.663998 -9.1414356
-62.96489 -22.742262 -0.083748534 70.673912 -61.614265 -87.393524
-62.655697 -9.2444372 -61.661774 -87.014328 -0.078604959 78.595879
1220000000 -1.360906 51.189407 -61.720512 -35.709801 -65.061111 -21.547844
-61.716396 -35.620811 -0.084104963 69.7687 -61.359451 -87.443779
-65.043327 -20.169888 -61.361752 -87.297043 -0.078275867 77.802849
1230000000 -1.3734715 22.912283 -61.031422 -49.102283 -69.455704 -29.288189
-61.072857 -49.279942 -0.08512675 68.862633 -61.080898 -89.263298
-69.531586 -28.581106 -61.139889 -89.293701 -0.078076653 77.01545
1240000000 -1.3602182 -5.1848245 -60.83173 -63.563251 -80.580826 -6.234127
-60.888313 -62.792892 -0.086175494 67.954475 -60.816608 -93.579292
-79.997269 -8.7045956 -60.793987 -93.53746 -0.078087427 76.23024
1250000000 -1.3295074 -32.624722 -61.091839 -77.01609 -73.494629 89.118851
-61.022343 -76.838181 -0.086957149 67.045456 -60.569912 -97.500473
-73.578011 87.235802 -60.625618 -97.393684 -0.078973725 75.44062
1260000000 -1.2930405 -59.148987 -61.609859 -90.270981 -66.830925 88.064331
-61.648132 -90.660637 -0.087189764 66.135124 -60.491856 -103.715
-66.846321 87.004929 -60.51025 -103.56065 -0.079856426 74.650101
1270000000 -1.2570813 -84.717262 -62.663319 -103.85131 -63.344048 78.128632
-62.6096 -103.81791 -0.087401427 65.228188 -60.68972 -109.40882
-63.315933 77.902382 -60.623486 -109.34438 -0.080131188 73.86277
1280000000 -1.2280607 -109.43844 -64.317574 -116.60374 -60.975849 67.136925
-64.394585 -116.78774 -0.086814351 64.318985 -61.029514 -115.5569
-60.92448 67.420624 -61.116436 -115.18422 -0.079878487 73.079552
1290000000 -1.2083285 -133.48947 -66.639832 -128.86412 -59.43903 55.689335
-66.539673 -127.86937 -0.086209945 63.40802 -61.473213 -120.08239
-59.457233 55.563519 -61.404922 -119.69736 -0.079510547 72.300491
1300000000 -1.1963013 -157.05006 -70.180283 -138.98837 -58.514465 44.258038
-69.995262 -138.09612 -0.085758664 62.493828 -62.10471 -124.15358
-58.492313 44.021847 -62.110558 -123.8811 -0.0791049 71.523415
1310000000 -1.1883198 179.72198 -76.868439 -146.70908 -57.832668 32.64006
-77.180679 -145.88786 -0.084980026 61.573425 -62.830067 -126.63735
-57.854671 32.487988 -62.734081 -126.69357 -0.077244073 70.74688
1320000000 -1.1832787 156.72472 -86.105446 -48.046795 -57.63224 20.879642
-87.361603 -45.636311 -0.08527872 60.644173 -63.245155 -127.15376
-57.63826 20.839491 -63.146877 -126.64451 -0.076400593 69.969902
1330000000 -1.1765026 133.90646 -74.811447 -12.266964 -57.793861 9.4394054
-74.545639 -13.922853 -0.085858993 59.710838 -63.268364 -129.5097
-57.772682 9.360652 -63.384293 -129.44267 -0.075538047 69.198112
1340000000 -1.1666191 111.2669 -69.575981 -17.503489 -58.250397 -1.0134944
-69.498276 -17.818794 -0.086452082 58.775951 -63.796711 -133.47252
-58.177677 -1.3494329 -63.642166 -133.36897 -0.074657209 68.42746
1350000000 -1.152809 88.852173 -66.435303 -25.773157 -58.892467 -11.591168
-66.334068 -25.797934 -0.085782714 57.830387 -64.426895 -134.55251
-59.011841 -11.889387 -64.382561 -135.62836 -0.072842732 67.653824
1360000000 -1.1368382 66.723305 -64.277351 -35.725784 -60.123119 -21.83971
-64.185875 -35.590836 -0.085674152 56.882259 -64.897034 -133.29306
-60.056236 -21.949203 -64.829002 -135.06905 -0.073457144 66.872864
1370000000 -1.1177727 44.929535 -62.745998 -46.213268 -61.645199 -32.12418
-62.711254 -46.110233 -0.086472362 55.935173 -64.827881 -135.64888
-61.706367 -32.250076 -64.777374 -136.35606 -0.074204691 66.097939
1380000000 -1.0974067 23.518045 -61.615257 -56.060802 -64.096802 -40.539715
-61.613537 -55.733864 -0.086451113 54.992302 -65.104858 -139.01617
-64.224426 -40.632046 -65.054306 -139.25034 -0.074562125 65.317657
1390000000 -1.0794698 2.4850242 -60.887604 -66.779411 -68.103737 -46.082542
-60.903912 -66.612709 -0.086375639 54.05064 -64.949089 -139.81888
-67.845039 -46.756599 -65.017097 -139.48557 -0.075045228 64.535042
1400000000 -1.0647699 -18.194143 -60.353714 -76.172104 -74.619324 -41.017742
-60.320454 -76.231468 -0.086531825 53.108353 -64.860504 -145.06944
-74.316254 -36.458801 -64.97377 -144.51868 -0.075384781 63.753654
1410000000 -1.0536638 -38.583767 -59.974701 -85.935471 -77.436005 43.626186
-59.988472 -86.031242 -0.087139107 52.166637 -65.108742 -150.19257
-77.8004 41.920513 -65.037682 -149.87279 -0.074874081 62.970371
1420000000 -1.0490764 -58.760002 -59.814911 -95.580536 -69.773636 67.44606
-59.74453 -95.813217 -0.088274412 51.221939 -65.502739 -157.10779
-69.829048 68.188805 -65.554749 -156.88884 -0.073321417 62.187904
1430000000 -1.0483299 -78.808952 -59.780964 -105.66998 -65.417046 68.186867
-59.762329 -106.04458 -0.089142814 50.273251 -66.410507 -163.24553
-65.412994 67.314751 -66.441559 -163.01244 -0.072734639 61.405609
1440000000 -1.0538003 -98.812469 -59.932121 -115.8913 -62.471783 60.296638
-59.944393 -115.71568 -0.08899112 49.316177 -67.278503 -165.66722
-62.518791 60.340603 -67.398605 -165.88953 -0.071828663 60.622055
1450000000 -1.0631675 -118.85519 -60.279705 -125.68216 -60.472652 51.777363
-60.303207 -125.00817 -0.090003535 48.355682 -68.22757 -168.34439
-60.480106 52.549374 -68.05584 -168.28525 -0.071251541 59.841038
1460000000 -1.0750753 -139.01408 -60.849232 -135.54472 -59.105671 43.365772
-60.787464 -135.3046 -0.090457886 47.393127 -69.098709 -172.70824
-59.037079 43.108734 -69.13266 -172.42909 -0.070856296 59.060635
1470000000 -1.0891443 -159.33638 -61.569927 -145.70766 -57.950535 34.036175
-61.642277 -146.19614 -0.090813123 46.432739 -69.879593 -173.34819
-57.988861 34.114807 -69.813377 -172.11827 -0.070307449 58.285309
1480000000 -1.1029555 -179.84 -62.732906 -156.54514 -57.196297 24.87285
-62.808792 -156.70546 -0.090365164 45.474892 -70.555634 -174.86646
-57.23925 25.28915 -70.475815 -173.53792 -0.069902897 57.514641
1490000000 -1.1142824 159.49138 -64.646477 -166.97868 -56.625771 15.745103
-64.582726 -167.33302 -0.090115555 44.518162 -71.70166 -173.80873
-56.643936 15.581974 -71.796814 -174.66479 -0.069114611 56.744217
1500000000 -1.1217077 138.69756 -67.038506 -176.38417 -56.32209 5.7328286
-66.886658 -176.595 -0.09057571 43.559906 -72.322693 -174.70932
-56.316074 5.8183694 -72.226036 -173.879 -0.069103837 55.973057
1510000000 -1.1248056 117.84068 -70.526398 175.88147 -56.26989 -4.3678832
-70.765999 176.80695 -0.091004081 42.599705 -72.782066 -174.41254
-56.302673 -4.3126063 -73.17482 -176.01173 -0.069606796 55.197441
1520000000 -1.123747 96.979836 -77.247231 178.63049 -56.54546 -14.783196
-77.123817 175.64262 -0.091376133 41.639114 -73.848732 -173.49519
-56.535015 -14.368058 -73.971382 -175.08751 -0.069507554 54.413128
1530000000 -1.1197557 76.174881 -83.702095 -90.887527 -57.094189 -24.462465
-84.055801 -85.079147 -0.091293544 40.667637 -74.449623 -175.05524
-57.068966 -24.620077 -74.571831 -173.65948 -0.069729671 53.626553
1540000000 -1.1136752 55.456261 -73.603241 -58.815819 -57.924786 -34.676914
-73.820808 -62.31995 -0.091754794 39.694431 -74.989197 -171.87323
-57.939419 -34.467777 -75.06044 -175.60677 -0.070228852 52.837044
1550000000 -1.108938 34.840828 -68.839195 -65.438789 -59.158428 -44.291348
-68.681091 -65.386887 -0.092272669 38.712875 -75.415497 -172.10661
-59.181595 -44.426888 -75.456879 -171.66888 -0.070788093 52.0485
1560000000 -1.106244 14.311237 -65.950226 -73.978233 -60.979866 -53.250004
-65.946617 -74.547546 -0.092278317 37.727627 -75.319977 -170.65779
-61.070328 -53.364281 -75.570267 -173.0696 -0.071592532 51.25819
1570000000 -1.1085275 -6.1789584 -63.748909 -83.435692 -63.801338 -61.842861
-63.980961 -83.4347 -0.092109174 36.741493 -75.721451 -174.19058
-63.709908 -61.79702 -75.794128 -172.68401 -0.071798265 50.474228
1580000000 -1.1175737 -26.70553 -62.426144 -93.17202 -68.399254 -68.039787
-62.51218 -93.118965 -0.092217974 35.750092 -76.306969 -177.06836
-68.19368 -66.496635 -76.130585 -174.80562 -0.071175829 49.696766
1590000000 -1.132992 -47.357204 -61.396282 -103.86803 -77.897392 -45.999451
-61.356815 -103.86097 -0.092724331 34.761829 -76.914635 -176.75795
