!Keysight Technologies,N5227B,US58420583,A.13.95.07
!Date: Wednesday, April 06, 2022 14:53:56
!Correction: S11(Full 3 Port(1,2,3)) 
!S12(Full 3 Port(1,2,3)) 
!S13(Full 3 Port(1,2,3)) 
!S21(Full 3 Port(1,2,3)) 
!S22(Full 3 Port(1,2,3)) 
!S23(Full 3 Port(1,2,3)) 
!S31(Full 3 Port(1,2,3)) 
!S32(Full 3 Port(1,2,3)) 
!S33(Full 3 Port(1,2,3)) 
!S3P File: Measurements: <S11,S12,S13>,
!<S21,S22,S23>,
!<S31,S32,S33>:
# Hz S  dB   R 50
650000000 -0.35234433 -76.777527 -69.666458 108.73024 -79.302795 71.578499
-69.767456 107.71349 -0.033349779 126.40565 -70.257629 24.480078
-79.975548 77.027626 -70.319138 22.758846 -0.044810902 135.58162
660000000 -0.37312624 -86.26368 -69.226501 105.42056 -82.980476 49.049053
-69.501289 104.73993 -0.033048831 125.58891 -70.960258 17.949974
-82.519432 45.986591 -71.19416 18.644457 -0.046743333 134.90384
670000000 -0.39594579 -95.970055 -68.56987 100.47192 -85.024162 43.567589
-68.601593 102.23819 -0.033304278 124.78309 -71.948875 25.049364
-87.868416 38.292992 -71.905388 24.721607 -0.047137659 134.23691
680000000 -0.42028457 -105.91361 -68.178444 92.58474 -86.486153 46.610962
-68.084419 93.793465 -0.033091057 123.9717 -70.840775 26.052984
-89.900696 45.094833 -71.074982 27.485374 -0.046793375 133.56799
690000000 -0.44343597 -116.12454 -68.070915 88.297287 -88.486656 13.044751
-67.815399 89.212456 -0.032776877 123.16187 -70.540337 19.040964
-89.531815 65.735283 -70.594055 21.877724 -0.046851866 132.90079
700000000 -0.46608013 -126.59619 -67.89283 84.24897 -88.641106 4.81212
-67.688606 84.955772 -0.032161459 122.34552 -70.328758 15.401049
-85.871918 23.861744 -70.529091 15.829775 -0.047242437 132.2368
710000000 -0.48772991 -137.32835 -67.398895 79.758125 -91.395058 -48.377769
-67.372772 79.903923 -0.033014517 121.53197 -70.958771 11.346668
-99.201569 -41.269531 -70.789063 10.808442 -0.047515098 131.5751
720000000 -0.50665164 -148.31569 -66.928284 74.955254 -91.701302 74.41819
-66.860397 74.038361 -0.033021539 120.71364 -71.517296 8.3399706
-86.787498 46.871948 -71.21122 7.5818548 -0.047308773 130.90865
730000000 -0.5213632 -159.53877 -66.769768 66.925415 -92.056152 46.682076
-66.825012 67.22068 -0.03382593 119.89654 -71.825394 11.056585
-90.333839 1.4945996 -71.807053 12.188704 -0.047246322 130.23425
740000000 -0.53228271 -170.96228 -66.598007 60.713688 -90.222557 21.776163
-66.562912 60.808014 -0.034047358 119.08079 -71.526047 13.179428
-90.621002 11.868607 -71.417473 13.187126 -0.048919234 129.56094
750000000 -0.54036194 177.45296 -66.57225 55.011009 -91.647095 3.2480605
-66.682701 54.436634 -0.033909421 118.26424 -70.676384 9.6206007
-92.019028 -11.761114 -71.173218 9.952323 -0.049823254 128.88187
760000000 -0.54484606 165.76447 -66.549187 46.115639 -89.349617 -10.073223
-66.712982 45.935181 -0.034697309 117.4472 -70.612892 6.7551699
-88.691673 -11.800638 -70.579811 8.419611 -0.051400695 128.20546
770000000 -0.54331505 154.02264 -67.142372 38.652946 -84.162254 -24.504726
-67.239357 36.40583 -0.03510128 116.63503 -70.443756 -1.0788327
-84.255981 -36.278793 -70.276283 -0.20025241 -0.052977879 127.52541
780000000 -0.53672522 142.28891 -67.987656 30.409801 -82.084373 -62.500793
-67.759247 30.216938 -0.03521616 115.81914 -71.192513 -2.0051992
-81.383324 -72.991547 -71.005981 -2.3592198 -0.053470619 126.8485
790000000 -0.52651715 130.6194 -68.655258 25.891445 -81.521912 -103.43012
-68.710922 24.718359 -0.035241835 115.00561 -71.573425 -5.0816302
-80.955925 -112.34519 -71.392822 -5.0209088 -0.054339197 126.18137
800000000 -0.51215845 119.07307 -69.435173 21.77037 -80.868614 -134.89905
-69.284645 22.891386 -0.035690125 114.19526 -71.63221 -5.322154
-81.135162 -140.96362 -71.861069 -4.1485457 -0.055037793 125.52418
810000000 -0.49425563 107.69839 -70.443604 17.100788 -83.021027 -155.19783
-70.406876 17.121603 -0.036730252 113.37711 -71.856323 -3.8332696
-82.908829 -159.60519 -71.822052 -4.1682191 -0.054698579 124.86543
820000000 -0.47404227 96.529869 -71.174736 12.63001 -82.279121 -174.33446
-71.47506 13.54292 -0.037170127 112.55864 -71.597488 -4.070714
-83.330223 -171.71277 -71.585907 -5.0935926 -0.054951832 124.2149
830000000 -0.4537361 85.593361 -72.182251 8.063427 -82.532852 171.48471
-72.279976 10.112236 -0.037229847 111.73924 -71.2435 -9.9140835
-82.832962 167.21844 -71.407318 -8.3524475 -0.055608336 123.56834
840000000 -0.43343034 74.909416 -73.474854 2.8658528 -85.519966 136.74272
-73.407333 4.7962146 -0.036801007 110.91956 -71.500404 -13.684743
-84.79467 148.11081 -71.368614 -13.428898 -0.055721872 122.91968
850000000 -0.4132551 64.486435 -74.928612 0.61242169 -88.253372 123.79214
-74.946617 -0.77478069 -0.037821315 110.09855 -72.275017 -14.127539
-86.101936 121.37318 -72.209503 -16.982738 -0.055317868 122.26604
860000000 -0.39644915 54.310143 -76.975723 -7.5025678 -96.872734 -172.75887
-77.463829 -7.8166718 -0.037799317 109.27547 -73.029213 -17.708523
-94.378693 167.53772 -73.07991 -14.436954 -0.055780094 121.60315
870000000 -0.38023052 44.378513 -79.854347 -13.426129 -88.819054 -156.5643
-81.07254 -12.492111 -0.03808346 108.45664 -73.080154 -11.988613
-91.249504 -166.73331 -73.280846 -11.87835 -0.05738594 120.93724
880000000 -0.36715555 34.670185 -88.478172 -7.1723952 -86.319542 -163.84749
-86.871323 -5.6107492 -0.036712665 107.64507 -73.006332 -9.186944
-87.221443 -172.31593 -72.931084 -9.2605419 -0.05851905 120.27106
890000000 -0.35755426 25.165422 -96.499672 106.08638 -84.364395 173.21449
-100.33667 59.180748 -0.036620282 106.83147 -72.206215 -8.7737875
-84.528969 -179.42731 -72.249298 -9.106658 -0.05954051 119.60979
900000000 -0.35020113 15.831404 -84.772514 141.90939 -83.448212 161.17722
-84.744621 136.92444 -0.036827661 106.01667 -71.750511 -14.497622
-84.195076 169.43706 -71.805496 -13.162583 -0.060230829 118.94903
910000000 -0.34625143 6.6245751 -79.421448 134.00783 -82.060219 151.23868
-79.717224 135.23912 -0.036910083 105.20805 -71.782005 -16.592731
-83.071457 156.87422 -71.952133 -16.544744 -0.060751438 118.29161
920000000 -0.34726885 -2.4919198 -75.90329 134.48993 -82.935394 146.75323
-76.510727 131.80125 -0.036053237 104.39559 -72.144012 -21.887217
-83.203598 149.7307 -72.076378 -19.081196 -0.060932238 117.63844
930000000 -0.35328603 -11.569089 -73.522247 127.35526 -84.141655 137.65515
-73.403008 130.38847 -0.036462288 103.58204 -72.338303 -21.637066
-83.289497 136.37857 -72.081825 -23.180536 -0.060850397 116.98457
940000000 -0.36207139 -20.601606 -71.851585 124.29293 -83.558678 131.26476
-71.820297 124.81862 -0.03681656 102.77044 -72.933144 -24.525478
-83.775024 131.83629 -73.038246 -23.537239 -0.062148113 116.33084
950000000 -0.37206259 -29.769804 -70.135223 120.60612 -83.947845 127.13773
-69.985374 120.77042 -0.03670942 101.9606 -72.984406 -24.629728
-83.669403 129.99422 -73.189735 -23.079525 -0.064022906 115.67711
960000000 -0.38901061 -39.077934 -68.891731 115.77454 -84.472504 134.31955
-68.693176 116.66418 -0.036873687 101.14806 -73.593124 -21.662262
-83.480278 127.45158 -73.768318 -23.03196 -0.065644883 115.02132
970000000 -0.41399544 -48.631649 -67.390289 111.39275 -83.420837 117.52995
-67.580055 111.12308 -0.037143998 100.33685 -73.936737 -16.78919
-84.491379 122.77718 -73.877731 -18.650635 -0.06694334 114.35994
980000000 -0.4473716 -58.550716 -66.368256 106.47744 -85.972878 118.52435
-66.488472 106.79023 -0.037104532 99.526108 -73.659233 -14.209144
-85.297523 118.65164 -73.893707 -15.860533 -0.067277648 113.70073
990000000 -0.49280459 -69.03083 -65.286835 100.18398 -84.784088 127.33071
-65.439651 100.92007 -0.038009927 98.714249 -73.177887 -13.159789
-86.113396 131.26106 -73.419395 -13.542586 -0.067587174 113.0342
1000000000 -0.56040263 -80.404472 -64.353615 93.729034 -81.990204 114.37052
-64.235161 94.405037 -0.038234409 97.902946 -72.476563 -12.842672
-83.564011 118.21831 -72.676613 -13.873704 -0.067750886 112.36926
1010000000 -0.68283826 -93.356316 -63.564167 86.801895 -83.608032 81.791695
-63.63409 86.586601 -0.039081611 97.092323 -71.982292 -14.78529
-84.426117 88.193565 -71.880203 -14.79153 -0.068113521 111.71329
1020000000 -1.0207367 -109.93644 -62.910854 77.253021 -91.282333 75.187706
-62.910107 77.791145 -0.04003026 96.276382 -71.752769 -17.973001
-88.090019 55.293274 -71.715813 -17.370529 -0.067986563 111.06739
1030000000 -4.138988 -138.85225 -63.296322 61.631844 -90.912521 -148.00288
-63.270626 61.870975 -0.041255999 95.458313 -71.381065 -18.166243
-94.013573 -131.17322 -71.33226 -20.387339 -0.067259744 110.42249
1040000000 -2.3622088 -103.11696 -63.56855 77.182426 -86.305817 144.29019
-63.52626 77.920837 -0.042573586 94.634918 -70.829018 -20.567869
-87.994499 157.33313 -70.908226 -20.876114 -0.066903278 109.78273
1050000000 -1.2139475 -131.92647 -61.989697 66.977837 -86.077415 151.06459
-61.905926 66.698112 -0.04252398 93.814964 -70.732391 -24.922834
-85.298645 158.01514 -70.550591 -24.863991 -0.067011453 109.13549
1060000000 -1.2425932 -156.32941 -61.462696 54.689842 -84.92524 147.44778
-61.425674 55.084991 -0.042895447 92.991814 -70.535568 -26.115036
-83.078842 159.66194 -70.630096 -27.911516 -0.068060838 108.49023
1070000000 -1.486076 175.71899 -61.376266 41.492462 -84.81031 156.90894
-61.404427 41.597298 -0.043777686 92.170746 -70.635452 -29.049782
-82.516899 159.43541 -70.592522 -29.907681 -0.069579065 107.83923
1080000000 -1.8654212 140.2702 -62.019444 26.194962 -81.726227 146.02281
-61.98 25.915152 -0.043941062 91.353157 -70.47113 -32.000519
-80.8675 149.50424 -70.313721 -31.499546 -0.071027011 107.18924
1090000000 -2.2477949 94.754791 -64.211296 7.7324753 -80.416191 134.37514
-64.320816 7.5185409 -0.043416277 90.538979 -70.229767 -34.76432
-80.23069 134.15135 -70.286346 -33.79834 -0.07245525 106.53996
1100000000 -2.3207166 42.135128 -70.154022 -6.0993948 -81.948273 135.49962
-70.114449 -5.674336 -0.043115057 89.724831 -70.176712 -36.972298
-81.932648 138.22319 -70.086388 -36.816429 -0.072455704 105.8912
1110000000 -2.0135543 -7.7840481 -77.60865 77.446465 -79.826088 137.36145
-77.560211 79.23513 -0.04254251 88.906044 -70.215858 -41.142845
-80.017769 136.28032 -70.160728 -41.642807 -0.071658887 105.24851
1120000000 -1.6459005 -48.68819 -67.704506 96.580681 -78.402168 122.04331
-67.814957 97.292953 -0.042986184 88.095772 -70.425697 -42.583824
-77.693634 123.03724 -70.272774 -43.554951 -0.069436781 104.6032
1130000000 -1.396264 -81.40963 -63.93335 85.929611 -78.083527 104.73199
-63.871273 85.600761 -0.042224877 87.27816 -70.112068 -46.028606
-77.487297 104.43332 -70.245728 -45.686947 -0.067917541 103.95872
1140000000 -1.2627916 -108.85811 -61.867157 73.524796 -79.209801 94.374237
-61.860989 73.898064 -0.042208698 86.460678 -70.216972 -47.117786
-78.209297 90.363495 -70.016205 -47.07431 -0.066548459 103.30904
1150000000 -1.2076845 -133.41388 -60.745083 61.891747 -81.414131 80.370026
-60.631321 61.591805 -0.042239588 85.642586 -70.333099 -49.560101
-79.449501 82.195534 -70.032234 -48.776146 -0.067317478 102.6683
1160000000 -1.2002647 -156.68332 -60.01194 50.4645 -81.691391 65.498062
-59.942444 50.301441 -0.042008005 84.826256 -69.978836 -51.729958
-81.329887 66.701172 -69.974243 -52.366695 -0.068048127 102.02582
1170000000 -1.2219696 -179.75392 -59.650036 38.903671 -86.690384 52.446392
-59.666557 38.884689 -0.041987788 84.013634 -69.802437 -55.562408
-86.423012 47.240391 -69.881683 -54.530548 -0.069819167 101.3804
1180000000 -1.2595581 156.63918 -59.760494 27.482386 -98.8993 50.570072
-59.733597 27.366026 -0.041538186 83.205994 -69.783607 -60.092278
-93.992844 -12.750932 -69.848457 -59.560795 -0.071370505 100.73658
1190000000 -1.3017699 132.01733 -60.124107 15.916931 -88.967308 -175.58263
-60.072849 16.123259 -0.041716088 82.395126 -70.11908 -64.068886
-89.902672 -156.11592 -70.289413 -63.90308 -0.072114959 100.09398
1200000000 -1.3397334 106.1619 -60.971569 4.3111424 -83.672554 159.42151
-60.943192 4.1574163 -0.042800833 81.590683 -70.573669 -65.043602
-83.591194 170.87047 -70.647438 -64.761993 -0.071933016 99.449608
1210000000 -1.3667212 79.109291 -62.489426 -7.4070549 -81.627419 141.61745
-62.381168 -8.0541344 -0.043045469 80.788918 -70.809982 -65.392479
-81.034523 155.40752 -70.599396 -64.527603 -0.071754523 98.801132
1220000000 -1.3773329 51.183506 -65.040337 -19.251024 -80.696915 143.68758
-64.839066 -19.346842 -0.044192005 79.988312 -70.208519 -65.518036
-80.924072 147.20912 -70.23983 -65.242752 -0.07195925 98.151794
1230000000 -1.3717351 22.901688 -69.595345 -27.288027 -79.335175 142.15225
-69.433968 -28.144783 -0.044556264 79.184578 -70.265404 -68.78199
-79.070381 141.87148 -70.231911 -67.336372 -0.071903996 97.507835
1240000000 -1.3565519 -5.1592541 -79.94812 -4.8520241 -77.539688 133.80374
-78.80941 -10.207993 -0.045251075 78.380371 -70.179626 -71.28093
-77.189697 134.38712 -70.014633 -72.257767 -0.072238848 96.866859
1250000000 -1.338551 -32.536831 -73.256836 88.40593 -76.008072 123.94367
-73.552299 87.730194 -0.045366816 77.578293 -69.67971 -76.028679
-76.064545 124.88622 -69.763504 -74.240486 -0.073023647 96.226524
1260000000 -1.3261074 -58.986305 -66.728386 87.807487 -75.636559 112.02929
-66.746765 87.31311 -0.045545701 76.773788 -69.61158 -79.92424
-75.609886 114.53896 -69.630608 -80.899506 -0.074311398 95.586411
1270000000 -1.319295 -84.480858 -63.226646 77.854317 -75.46608 101.78604
-63.211655 78.438629 -0.045632545 75.973732 -69.637314 -86.847595
-75.127197 103.35684 -69.452477 -86.845619 -0.07503856 94.947617
1280000000 -1.3184458 -109.13705 -60.991493 67.047844 -75.336952 83.91964
-60.946011 67.13372 -0.04563668 75.171532 -70.001129 -92.188644
-75.068855 86.099846 -69.820107 -93.451889 -0.074840516 94.309563
1290000000 -1.3216496 -133.14821 -59.54084 55.834583 -76.481377 73.851295
-59.498055 55.584274 -0.045306973 74.372604 -70.179565 -99.729004
-76.491928 76.774208 -70.164696 -98.986748 -0.075701304 93.673965
1300000000 -1.3235098 -156.6953 -58.575222 44.481766 -77.058754 62.659882
-58.561913 44.511814 -0.045246419 73.573273 -70.919495 -104.85898
-77.292992 64.768898 -70.822792 -104.77784 -0.074637674 93.040436
1310000000 -1.3179601 -179.94167 -58.001926 33.262115 -78.142578 49.86763
-58.003239 33.389404 -0.045153275 72.770424 -71.710251 -108.80526
-77.713943 47.84417 -71.752983 -107.90913 -0.073540248 92.403351
1320000000 -1.3051476 157.01486 -57.762959 21.994509 -81.660797 22.352638
-57.758247 21.879503 -0.045466498 71.961884 -72.002678 -111.07829
-80.967209 23.348637 -72.029442 -108.89704 -0.072474577 91.769653
1330000000 -1.2817692 134.1295 -57.841141 10.900047 -92.272163 2.8278465
-57.835289 10.835836 -0.046303637 71.148453 -72.569489 -113.77884
-90.429207 -3.1210482 -72.700462 -112.6193 -0.070879035 91.139999
1340000000 -1.248255 111.41994 -58.218414 0.11664328 -94.567787 114.89418
-58.242752 0.16902071 -0.046523172 70.335747 -73.469284 -114.4649
-93.80584 124.32178 -73.516571 -115.83761 -0.068719603 90.513107
1350000000 -1.2080973 88.938927 -58.931374 -10.455721 -87.466911 146.00081
-58.982491 -10.869279 -0.046393789 69.516403 -73.928299 -118.38161
-87.695396 145.45769 -74.024071 -118.73952 -0.066843577 89.88604
1360000000 -1.1674303 66.757545 -60.006348 -21.053349 -83.812309 142.48112
-60.072662 -21.49016 -0.046537176 68.694763 -74.763962 -119.65583
-84.135269 141.85876 -74.597511 -115.90028 -0.06634593 89.254906
1370000000 -1.1286831 44.92878 -61.697189 -31.074106 -81.089851 141.44859
-61.672829 -31.562082 -0.047139246 67.876289 -74.999359 -117.62189
-81.640266 141.853 -75.271538 -115.69897 -0.066628255 88.626488
1380000000 -1.097384 23.504169 -64.148369 -40.286449 -80.275902 133.26544
-64.115036 -40.039242 -0.047258411 67.061607 -75.588829 -117.47697
-79.221634 138.30708 -75.31414 -118.43134 -0.066894598 87.993668
1390000000 -1.0760745 2.4783657 -67.70842 -46.872829 -77.603355 130.29369
-67.987053 -47.17799 -0.046850428 66.253044 -75.825813 -114.17611
-77.157196 129.76076 -75.595985 -118.32574 -0.067321345 87.359756
1400000000 -1.0672386 -18.168392 -74.723717 -42.354553 -76.382988 117.90492
-74.829933 -41.043667 -0.046895523 65.441208 -75.844879 -121.70727
-76.677338 119.10027 -75.836044 -117.27885 -0.067988783 86.722855
1410000000 -1.0698425 -38.503891 -78.601433 54.873127 -75.589035 106.46093
-79.560814 54.560459 -0.047497153 64.631454 -75.666565 -122.62189
-75.41481 108.44488 -75.603539 -120.48264 -0.06777034 86.084435
1420000000 -1.0839388 -58.608978 -69.628906 76.240364 -75.633331 96.198402
-69.725548 76.108101 -0.048488747 63.82217 -76.248932 -128.03868
-75.26181 93.553513 -76.102821 -130.25911 -0.066992857 85.447121
1430000000 -1.105808 -78.580925 -65.038162 71.687325 -75.344017 87.684517
-65.068634 71.740715 -0.049637396 63.013878 -76.513092 -135.31163
-75.761299 85.373863 -77.09938 -136.11441 -0.066054098 84.80703
1440000000 -1.1348193 -98.511047 -62.168568 64.30098 -75.907402 80.114082
-62.263458 64.081383 -0.049416896 62.198982 -77.886818 -136.2507
-76.004852 76.17485 -78.495255 -135.76131 -0.064969562 84.164703
1450000000 -1.1651783 -118.49612 -60.112942 55.010193 -77.07206 66.582314
-60.143173 55.308815 -0.050128579 61.385159 -78.4151 -138.27931
-77.001884 67.086884 -79.04966 -139.23042 -0.064363517 83.524475
1460000000 -1.1937523 -138.61722 -58.68618 45.84967 -79.119949 62.235126
-58.676945 45.729977 -0.051233113 60.572208 -79.637695 -140.23035
-79.447807 63.034512 -79.352623 -141.95212 -0.063445523 82.887878
1470000000 -1.2191216 -158.92738 -57.535995 36.302895 -82.396896 58.542892
-57.556591 36.184978 -0.05140546 59.760414 -80.566566 -141.21663
-81.347702 57.893776 -80.496643 -142.51942 -0.062900499 82.255402
1480000000 -1.2344627 -179.44286 -56.744663 26.37797 -83.537445 80.622559
-56.741222 26.129683 -0.051388223 58.955475 -82.083733 -134.80623
-85.320129 77.497482 -82.152351 -138.87689 -0.06196633 81.626297
1490000000 -1.2391845 159.84799 -56.252502 16.648293 -83.157745 90.413971
-56.254017 16.425812 -0.050789662 58.154533 -83.293091 -139.18248
-83.903877 96.033546 -82.591454 -132.36537 -0.061397772 81.000305
1500000000 -1.2317485 138.99318 -55.955448 6.4956765 -83.769722 91.727997
-55.988312 6.3095021 -0.051077835 57.354477 -83.025917 -129.36551
-83.826141 101.94422 -83.633209 -130.82697 -0.061386432 80.374969
1510000000 -1.2145792 118.05714 -55.932175 -3.5091116 -83.829117 114.98116
-55.984562 -3.7418714 -0.051257838 56.555202 -83.492966 -123.0987
-82.599632 116.48265 -84.014519 -123.45454 -0.061243128 79.747459
1520000000 -1.1892433 97.113403 -56.254379 -13.837866 -81.562157 124.61785
-56.20715 -14.066598 -0.051457211 55.758633 -84.752327 -119.04766
-80.758049 120.49265 -84.156609 -117.72095 -0.061055735 79.109993
1530000000 -1.1606493 76.234634 -56.775383 -24.323738 -80.130287 123.07687
-56.737812 -24.512951 -0.051231947 54.954224 -85.220978 -119.7582
-79.270866 121.77277 -83.511124 -116.87579 -0.061142061 78.470428
1540000000 -1.133566 55.459141 -57.613644 -34.327961 -79.093536 121.70795
-57.667427 -34.297935 -0.051400717 54.151379 -84.504135 -118.18648
-78.459328 121.30307 -84.50415 -109.55769 -0.061507817 77.829063
1550000000 -1.1136388 34.813992 -58.878139 -44.090424 -77.675972 124.92932
-58.97308 -43.964592 -0.051407035 53.343136 -84.037857 -110.96835
-77.569145 122.56187 -85.050018 -116.93146 -0.062077411 77.18679
1560000000 -1.1035471 14.285229 -60.810917 -53.532703 -76.287773 124.4802
-60.829777 -53.614571 -0.051884789 52.534077 -83.709953 -115.6583
-76.05928 127.89356 -83.563553 -113.67554 -0.062593706 76.546341
1570000000 -1.1065937 -6.1762176 -63.465714 -61.439369 -74.401413 122.0344
-63.487476 -60.856918 -0.051480394 51.727734 -84.91877 -106.50674
-74.599396 124.64776 -84.533318 -119.21949 -0.062576674 75.905029
1580000000 -1.125246 -26.648466 -68.167732 -66.500526 -73.46508 120.39568
-68.053017 -66.643013 -0.051047463 50.91964 -87.498428 -114.40427
-73.111221 120.62105 -83.856323 -110.12072 -0.062308881 75.27092
1590000000 -1.1572988 -47.223522 -77.177116 -47.349377 -72.20134 114.01225
-77.539162 -45.730965 -0.051203627 50.116455 -86.066742 -101.65296
-71.958755 112.32286 -85.822342 -106.85873 -0.061308406 74.64225
