!Keysight Technologies,N5227B,US58420583,A.13.95.07
!Date: Wednesday, April 06, 2022 15:09:09
!Correction: S11(Full 3 Port(1,2,3)) 
!S12(Full 3 Port(1,2,3)) 
!S13(Full 3 Port(1,2,3)) 
!S21(Full 3 Port(1,2,3)) 
!S22(Full 3 Port(1,2,3)) 
!S23(Full 3 Port(1,2,3)) 
!S31(Full 3 Port(1,2,3)) 
!S32(Full 3 Port(1,2,3)) 
!S33(Full 3 Port(1,2,3)) 
!S3P File: Measurements: <S11,S12,S13>,
!<S21,S22,S23>,
!<S31,S32,S33>:
# Hz S  dB   R 50
650000000 -0.32144594 -78.23642 -52.296101 -95.98201 -68.103699 81.364838
-52.307732 -96.105125 -0.073122911 63.997944 -76.831589 -35.917339
-68.202408 83.226471 -77.377968 -40.311066 -0.06574291 121.4503
660000000 -0.33695149 -88.023247 -52.450737 -102.09577 -69.793137 67.673286
-52.423397 -101.86838 -0.071258441 62.088215 -77.236893 -43.867512
-70.039047 68.527382 -77.555344 -50.789993 -0.067408256 120.55333
670000000 -0.35308963 -98.035934 -52.840855 -108.3376 -70.515739 79.327927
-52.840607 -108.39314 -0.071838625 60.172001 -79.011223 -48.321396
-70.62632 78.322403 -78.333122 -51.63142 -0.067919485 119.66376
680000000 -0.37015015 -108.29305 -53.207638 -114.17347 -70.096535 82.746269
-53.18499 -114.31773 -0.070473306 58.242287 -79.888802 -48.45451
-69.991074 80.509781 -79.799118 -49.855793 -0.067079484 118.76998
690000000 -0.38673538 -118.80587 -53.691944 -120.38729 -68.083847 84.24192
-53.703907 -120.44435 -0.071905263 56.312141 -80.13884 -41.644474
-68.215126 84.734467 -79.332069 -47.297485 -0.068676129 117.87729
700000000 -0.40430778 -129.55055 -54.279652 -126.23148 -66.170433 71.141396
-54.258137 -126.14989 -0.072708666 54.361786 -79.91877 -42.574631
-66.427826 71.499748 -79.908661 -46.070927 -0.069518596 116.98621
710000000 -0.41632292 -140.53883 -54.89399 -132.33942 -66.170052 54.968197
-54.917324 -132.49179 -0.074194849 52.409496 -80.008415 -50.23204
-66.266159 55.517925 -79.282997 -53.13858 -0.070283212 116.09171
720000000 -0.42907223 -151.74017 -55.73373 -138.96619 -67.026123 52.438759
-55.698647 -138.84215 -0.075329952 50.450191 -81.421005 -50.206944
-66.762978 54.130306 -80.150322 -58.071636 -0.070815876 115.19314
730000000 -0.43519711 -163.11516 -56.694576 -144.81581 -66.44072 44.907524
-56.631821 -144.72987 -0.075898007 48.483326 -80.98848 -48.737801
-66.400452 45.204197 -80.562744 -52.425976 -0.071930178 114.28437
740000000 -0.43724212 -174.65073 -57.86095 -151.52132 -66.761307 41.137623
-57.892502 -151.32445 -0.07687518 46.514744 -81.271729 -43.149967
-66.60421 42.082802 -80.614426 -48.918407 -0.073931374 113.37969
750000000 -0.43945566 173.71338 -59.388836 -158.0244 -67.515984 41.661034
-59.389034 -157.91142 -0.075725541 44.534595 -81.35849 -51.30175
-67.286926 42.428196 -81.438126 -53.759041 -0.07467477 112.46995
760000000 -0.44253337 162.06049 -61.526463 -164.71475 -66.478867 45.436069
-61.522514 -164.51219 -0.077591248 42.549206 -82.046097 -49.00597
-66.409889 45.474182 -81.766724 -58.549782 -0.075867139 111.5654
770000000 -0.44640529 150.44882 -64.411972 -169.50594 -64.625938 42.044312
-64.54467 -168.86081 -0.078239784 40.557655 -81.188522 -61.215012
-64.57103 42.014286 -82.491577 -61.610519 -0.077083014 110.65751
780000000 -0.4424834 138.94914 -68.854645 -171.85284 -63.836327 25.709925
-68.730598 -172.00769 -0.078417785 38.555172 -83.579811 -55.334442
-63.748821 24.608015 -82.843178 -57.697552 -0.07799422 109.75435
790000000 -0.43358549 127.55724 -77.512047 -159.67337 -64.631294 16.561203
-77.586685 -162.25638 -0.078575633 36.541687 -83.350227 -66.820374
-64.696671 15.878101 -83.104591 -62.611752 -0.078718491 108.86089
800000000 -0.42382756 116.31653 -77.350372 -38.805218 -65.053802 9.7088242
-77.077011 -42.083504 -0.07995376 34.52375 -83.815292 -62.753403
-65.018822 8.9483967 -83.893501 -61.98291 -0.079973944 107.97266
810000000 -0.41345528 105.2767 -68.552727 -28.306536 -65.789421 4.5391173
-68.476768 -28.868153 -0.08056207 32.492989 -84.068825 -58.906788
-65.719269 4.271143 -84.351784 -51.258163 -0.080292203 107.07696
820000000 -0.40468517 94.457054 -64.031303 -31.769379 -66.266754 3.4064717
-64.041138 -32.590523 -0.081341065 30.451172 -84.225327 -51.311535
-66.17765 3.1287537 -83.851288 -60.189056 -0.080815069 106.18806
830000000 -0.39584079 83.876793 -61.127235 -36.68848 -66.70182 3.348484
-61.196018 -36.968124 -0.081271112 28.403397 -84.537292 -59.274567
-66.427368 3.047729 -83.350838 -58.373913 -0.081812106 105.29645
840000000 -0.388201 73.547363 -58.950066 -42.245766 -65.632568 4.5803108
-59.023705 -42.015884 -0.081777215 26.351299 -85.381279 -64.23822
-65.60701 4.5912075 -84.395081 -67.293236 -0.082392201 104.40123
850000000 -0.37917262 63.46172 -57.256638 -48.057625 -65.129715 -2.6715627
-57.250286 -48.023392 -0.082629241 24.301895 -85.210297 -75.730499
-65.193123 -2.9385521 -86.040825 -72.202103 -0.083098903 103.50159
860000000 -0.37041947 53.585663 -55.829967 -53.38599 -65.008156 -8.7651291
-55.863522 -53.63121 -0.081981897 22.238081 -87.368149 -79.364098
-65.044846 -8.1628199 -85.923271 -70.464096 -0.083976321 102.60073
870000000 -0.36169457 43.913979 -54.633148 -58.946236 -64.855537 -15.44266
-54.657581 -58.762493 -0.082629681 20.169334 -87.902122 -82.382339
-64.912071 -13.989971 -88.041611 -77.132332 -0.085448064 101.70007
880000000 -0.35567862 34.411617 -53.607994 -64.636154 -64.812813 -21.336361
-53.634766 -64.826637 -0.082581714 18.094006 -89.653809 -91.738586
-64.96048 -22.28299 -88.974716 -87.709488 -0.086187035 100.80152
890000000 -0.35166669 25.058113 -52.714504 -70.566177 -65.24704 -28.715437
-52.721142 -70.184883 -0.08445444 16.009798 -91.922249 -83.13678
-65.300713 -29.081104 -91.436996 -77.680344 -0.086078957 99.905014
900000000 -0.34871706 15.819516 -51.883572 -75.876259 -66.013168 -35.729439
-51.929485 -75.976814 -0.08575692 13.911772 -95.118935 -82.696724
-66.062767 -35.417366 -91.608833 -90.355324 -0.087086134 99.003235
910000000 -0.34725443 6.6426339 -51.15844 -81.464058 -66.744217 -39.790165
-51.180359 -81.417809 -0.087533511 11.805963 -94.528816 -71.591652
-66.62825 -40.275326 -93.02813 -90.777733 -0.08766026 98.10482
920000000 -0.34940737 -2.5044379 -50.514778 -87.172249 -67.60257 -43.948689
-50.496895 -87.174263 -0.089024775 9.6817245 -94.031219 -88.05896
-67.585968 -43.515865 -96.836601 -91.75592 -0.088587992 97.203575
930000000 -0.35496449 -11.663308 -49.861465 -92.791283 -68.146317 -45.035103
-49.882019 -92.662361 -0.090869755 7.5506716 -100.69371 -29.774977
-68.092606 -44.949471 -95.297546 -67.759445 -0.089648865 96.297783
940000000 -0.3623181 -20.900335 -49.253788 -98.569832 -68.695442 -47.335651
-49.291008 -98.392517 -0.093047135 5.4108343 -110.21073 85.007065
-68.809235 -47.134102 -106.25541 -15.664426 -0.091341496 95.395378
950000000 -0.37426087 -30.267605 -48.723106 -104.11454 -69.24839 -48.553234
-48.730564 -104.07052 -0.093315966 3.2621861 -109.93279 83.96492
-69.552727 -49.579441 -105.41824 36.535496 -0.092834346 94.483475
960000000 -0.39045703 -39.844147 -48.200584 -110.00914 -70.187088 -50.55011
-48.215172 -110.0337 -0.096083038 1.1058944 -93.786781 89.193054
-70.459106 -49.202976 -101.43695 73.789024 -0.094233602 93.573418
970000000 -0.41342759 -49.722576 -47.696003 -116.17768 -70.180763 -47.523514
-47.705853 -116.01443 -0.097453132 -1.0599166 -98.485275 58.030079
-70.449944 -46.635185 -99.966484 42.57782 -0.094667256 92.659653
980000000 -0.44268018 -60.035793 -47.227016 -122.32156 -70.470291 -50.947121
-47.223816 -122.2446 -0.099003807 -3.234952 -97.754578 94.615082
-70.604149 -49.923584 -94.812256 85.042221 -0.095093682 91.753609
990000000 -0.48237845 -70.984001 -46.746349 -128.93419 -72.257767 -61.611565
-46.730515 -128.74188 -0.10051747 -5.4137702 -91.697861 76.86264
-72.275894 -59.903278 -91.428337 97.293617 -0.095548287 90.844696
1000000000 -0.54437536 -82.911896 -46.263348 -136.05861 -75.71228 -55.295612
-46.260681 -135.92189 -0.10118917 -7.6093082 -89.040787 81.080849
-75.775032 -52.522449 -90.208633 87.003349 -0.095389515 89.938477
1010000000 -0.66337359 -96.515366 -45.798878 -144.05763 -75.559822 -25.58452
-45.796227 -143.97612 -0.10265831 -9.8118553 -87.705818 79.389679
-75.054329 -28.380976 -87.740112 78.663284 -0.095884763 89.034782
1020000000 -1.0028082 -113.89942 -45.35191 -154.29169 -74.308113 -4.8833871
-45.331295 -154.1581 -0.104265 -12.034534 -85.439926 72.35701
-73.359718 -6.0851254 -84.807808 71.302979 -0.096750997 88.136589
1030000000 -4.2069759 -144.13339 -45.8825 -173.05438 -68.305962 -10.704103
-45.875328 -173.24246 -0.10554197 -14.26349 -84.170509 75.413292
-67.945412 -11.469621 -84.577698 58.520241 -0.097608954 87.236282
1040000000 -2.4023712 -107.03412 -46.976124 -157.19008 -70.054184 -50.549095
-46.964104 -157.27045 -0.10714921 -16.505363 -82.540657 70.06102
-69.632301 -50.706047 -83.780319 60.184402 -0.098532684 86.334785
1050000000 -1.1828133 -136.84494 -45.323013 -168.89258 -78.003891 -40.858406
-45.306747 -168.88028 -0.10789895 -18.756706 -83.360504 70.902878
-76.609879 -53.766262 -82.235504 66.596779 -0.099556327 85.428108
1060000000 -1.1867894 -161.78822 -44.811951 178.25963 -73.875183 7.5620003
-44.793926 178.27191 -0.10797887 -21.010555 -81.163445 60.73217
-74.743813 6.3462868 -81.443863 62.925159 -0.10087897 84.520859
1070000000 -1.3995703 170.22827 -44.703037 163.85547 -70.111198 8.8784227
-44.691036 163.9388 -0.10997216 -23.273413 -81.091545 56.836819
-70.825218 9.8904753 -80.219177 53.414291 -0.10266646 83.611427
1080000000 -1.740849 135.59813 -45.09531 146.82388 -66.580963 6.829277
-45.076107 146.74802 -0.11053938 -25.551807 -80.340004 47.973167
-66.758385 9.3806896 -80.171814 49.238876 -0.10333616 82.704536
1090000000 -2.1112971 92.071175 -46.44051 126.75923 -63.522194 -7.1726313
-46.443336 126.61138 -0.11219312 -27.837002 -79.911812 48.017929
-63.386372 -6.9608288 -80.395821 43.108051 -0.1037036 81.797363
1100000000 -2.2563882 41.595715 -49.631023 105.20483 -62.090954 -32.650532
-49.633904 105.1667 -0.11418715 -30.139015 -79.848724 43.057999
-62.099033 -31.969875 -79.420708 40.116016 -0.10330277 80.889305
1110000000 -2.0450037 -7.9583836 -56.447037 91.134247 -62.685333 -53.533474
-56.473835 91.144798 -0.11611167 -32.456894 -79.341286 37.426365
-62.735466 -53.400879 -79.249649 33.682766 -0.10135097 79.9842
1120000000 -1.7030817 -50.092655 -65.821754 169.15695 -64.101479 -69.123314
-65.794029 170.02408 -0.11879225 -34.785973 -79.702568 30.103455
-64.137672 -69.211327 -79.471153 29.473642 -0.10004199 79.074501
1130000000 -1.4328887 -84.441986 -56.102692 -162.21915 -66.186844 -82.424332
-56.097244 -162.0817 -0.12130216 -37.133785 -79.419624 37.309319
-66.387291 -81.594513 -79.361008 28.505266 -0.098791614 78.161591
1140000000 -1.2691462 -113.28378 -52.289192 -171.0858 -68.748444 -93.778709
-52.284405 -171.10043 -0.12325548 -39.495342 -79.744911 34.024452
-68.780334 -92.268127 -79.536751 35.018379 -0.098182462 77.243179
1150000000 -1.1828758 -138.82805 -50.40313 177.48444 -72.694801 -100.63851
-50.391968 177.38339 -0.12703687 -41.872196 -78.664223 35.86816
-72.498062 -99.480385 -78.885185 34.360184 -0.098761 76.325638
1160000000 -1.1490902 -162.6301 -49.322407 165.73477 -85.385117 -93.909302
-49.314781 165.90152 -0.1287058 -44.260941 -78.372292 36.090527
-82.587578 -104.00565 -77.971161 35.709282 -0.099685371 75.404541
1170000000 -1.1464106 174.26094 -48.769341 153.94264 -75.037674 24.538946
-48.745495 153.9261 -0.13097681 -46.66338 -77.263298 36.593414
-75.231865 23.600994 -77.075951 36.975559 -0.10104649 74.481636
1180000000 -1.1620084 151.08948 -48.599396 141.66902 -68.876114 5.9936957
-48.602722 141.65965 -0.1348222 -49.083 -76.101723 33.818344
-68.957352 7.1629243 -76.313438 32.118382 -0.10262321 73.559975
1190000000 -1.1939244 127.35527 -48.820225 129.22272 -66.226974 -5.4857578
-48.789253 129.08264 -0.13685572 -51.517841 -75.17157 26.962749
-66.288826 -5.2257199 -75.344666 23.990026 -0.10324722 72.640411
1200000000 -1.2346588 102.75108 -49.332771 116.7391 -64.5411 -13.534545
-49.331482 116.60652 -0.14046516 -53.97282 -75.467148 22.784863
-64.579872 -13.804072 -75.012856 19.030787 -0.10260607 71.72319
1210000000 -1.2796351 77.085594 -50.180244 103.70981 -62.59528 -23.416935
-50.189579 103.58719 -0.14151433 -56.446796 -75.258461 19.136852
-62.696869 -22.866573 -74.768799 15.968716 -0.10227345 70.800865
1220000000 -1.3223594 50.357758 -51.492325 90.163834 -61.509727 -36.940269
-51.490398 90.250824 -0.14451756 -58.946159 -74.529205 14.277533
-61.469906 -36.400192 -74.527328 14.004769 -0.10195322 69.874397
1230000000 -1.3574004 22.775501 -53.339516 76.603882 -60.918995 -50.152092
-53.336773 76.44873 -0.14719743 -61.466282 -74.759201 12.60708
-60.879921 -49.377136 -74.592987 10.425925 -0.10119839 68.948143
1240000000 -1.378956 -5.2902875 -55.817924 62.778297 -60.648323 -61.515999
-55.881165 62.956478 -0.14967896 -64.007538 -73.743721 8.3516655
-60.681778 -62.031204 -73.623184 5.1416421 -0.10149296 68.020554
1250000000 -1.3835481 -33.383343 -59.240498 50.492985 -60.544701 -73.927124
-59.281433 49.998558 -0.15334634 -66.56736 -73.32563 2.673739
-60.597855 -73.149399 -73.306549 0.51928234 -0.10293826 67.08886
1260000000 -1.3744458 -61.074303 -63.869572 37.7892 -60.648647 -87.187309
-63.870617 38.626324 -0.15539263 -69.148491 -73.584824 -3.5342474
-60.749275 -86.954498 -73.287315 -5.2975254 -0.10380219 66.155411
1270000000 -1.3528218 -88.041809 -70.691467 26.230415 -61.442158 -101.81269
-70.836922 28.38504 -0.15954149 -71.751183 -73.616798 -8.4899883
-61.363266 -100.4612 -73.400429 -10.910585 -0.10353472 65.223076
1280000000 -1.3239404 -114.09829 -82.477127 4.7230687 -62.533863 -115.4081
-83.349617 7.5102782 -0.16088669 -74.377678 -73.42469 -10.990051
-62.449734 -113.99499 -73.720428 -15.684087 -0.10305164 64.291878
1290000000 -1.2898483 -139.18091 -83.576218 -114.68339 -64.620438 -129.45375
-83.5242 -102.9619 -0.16414829 -77.026611 -73.717865 -15.066226
-64.434799 -128.04015 -73.668091 -18.108604 -0.1031557 63.366287
1300000000 -1.2530552 -163.31995 -76.957542 -92.142212 -67.612976 -142.13603
-76.726593 -89.715271 -0.16674888 -79.699806 -73.79538 -19.91552
-67.123604 -141.26488 -73.979652 -22.342747 -0.10286527 62.44025
1310000000 -1.2152818 173.39587 -69.491653 -76.960808 -72.895256 -152.35812
-69.364578 -77.557571 -0.16929483 -82.397453 -73.914658 -23.121309
-71.703056 -154.58441 -73.983887 -23.031548 -0.1016029 61.511311
1320000000 -1.1813234 150.84607 -63.421413 -75.365219 -82.733238 -143.00125
-63.259476 -76.120598 -0.1741991 -85.116783 -74.350075 -22.960052
-81.01384 -155.90996 -74.243675 -23.682096 -0.10073798 60.581135
1330000000 -1.1498138 128.87885 -58.935116 -82.227333 -80.318184 -14.818773
-58.845005 -82.660591 -0.17803183 -87.860237 -73.716232 -26.576262
-81.767029 3.4630609 -74.057213 -27.83448 -0.10053355 59.651165
1340000000 -1.124046 107.3578 -55.488602 -91.40786 -71.624725 -11.151952
-55.495621 -91.854317 -0.18127045 -90.627899 -73.735451 -30.101719
-71.709839 -6.0379429 -73.668198 -30.700546 -0.10001123 58.719109
1350000000 -1.1039886 86.152657 -52.803162 -101.12705 -67.360229 -21.338629
-52.762882 -101.37206 -0.18333079 -93.422722 -73.906288 -31.31831
-67.126518 -18.870937 -73.915253 -34.445339 -0.099525392 57.779964
1360000000 -1.0909727 65.147896 -50.582897 -111.5703 -64.730888 -32.620125
-50.585205 -111.59571 -0.18831107 -96.248238 -74.244759 -33.300808
-64.459091 -32.698036 -74.263733 -33.502548 -0.100327 56.834732
1370000000 -1.084026 44.242882 -48.774303 -122.10736 -62.863594 -44.428333
-48.795238 -122.15678 -0.1907789 -99.096794 -73.625092 -35.135803
-62.8018 -44.457802 -73.883499 -38.70108 -0.1010424 55.890457
1380000000 -1.0827725 23.36219 -47.309517 -133.16006 -61.606056 -55.505028
-47.296803 -133.18475 -0.1953838 -101.97944 -73.599785 -42.033424
-61.685833 -55.721848 -73.574921 -41.564255 -0.10212687 54.939648
1390000000 -1.0876782 2.4282889 -46.115532 -144.39362 -60.853394 -66.135231
-46.101227 -144.42615 -0.19797546 -104.89991 -73.088799 -45.757984
-60.870167 -66.274353 -73.361908 -47.100838 -0.10259222 53.989128
1400000000 -1.0978924 -18.606611 -45.194412 -155.8867 -60.27573 -75.933212
-45.192253 -155.81299 -0.20500408 -107.86005 -73.246346 -49.892475
-60.194229 -75.810059 -73.082558 -52.805695 -0.10282283 53.034538
1410000000 -1.1109262 -39.769966 -44.550873 -167.51021 -59.724632 -85.852699
-44.562939 -167.43243 -0.20675221 -110.85537 -73.13707 -58.377689
-59.767017 -85.250511 -72.930702 -61.121696 -0.10271095 52.077473
1420000000 -1.1261027 -61.040054 -44.195324 -179.13898 -59.38726 -96.198677
-44.189934 -179.07242 -0.20931639 -113.88976 -73.464447 -65.77861
-59.34586 -95.599342 -73.455673 -67.947968 -0.10184152 51.117985
1430000000 -1.1402248 -82.367813 -44.079422 169.32437 -59.415489 -108.02925
-44.060558 169.3463 -0.21159738 -116.96429 -74.579651 -72.063446
-59.347294 -108.05148 -74.136383 -71.792511 -0.1012341 50.155979
1440000000 -1.1514702 -103.66841 -44.231533 157.79358 -59.594326 -118.10306
-44.226845 157.82109 -0.21623027 -120.08282 -75.106812 -75.245033
-59.604912 -117.66311 -75.152428 -74.74852 -0.10104539 49.191475
1450000000 -1.1568428 -124.85774 -44.711651 146.31519 -59.929966 -127.36295
-44.708073 146.30339 -0.22027482 -123.24544 -75.760231 -78.270912
-59.898716 -127.44288 -75.49147 -77.489349 -0.10175976 48.224926
1460000000 -1.1555012 -145.87097 -45.601852 135.44742 -60.313568 -138.93965
-45.590031 135.41183 -0.22307938 -126.45789 -76.116753 -79.157677
-60.199432 -138.70747 -76.166534 -81.191078 -0.10162709 47.260418
1470000000 -1.1466618 -166.65753 -46.912941 125.16724 -61.108364 -151.29129
-46.918392 125.06951 -0.23084085 -129.72221 -76.775772 -82.764084
-60.92733 -151.04684 -76.691704 -87.011383 -0.10151422 46.296227
1480000000 -1.1350739 172.82268 -48.810593 115.57783 -62.350815 -163.3884
-48.826813 115.51762 -0.23339812 -133.04121 -77.291962 -83.313835
-62.255619 -163.91507 -77.014618 -83.84404 -0.10182756 45.333862
1490000000 -1.1221566 152.60703 -51.710575 107.72993 -64.187866 -175.4993
-51.72533 107.68005 -0.23950741 -136.41582 -77.401207 -83.009346
-64.059006 -175.51952 -77.144875 -88.1819 -0.10163975 44.36832
1500000000 -1.1071519 132.67731 -56.618565 105.45483 -66.919052 172.44
-56.727737 105.88466 -0.24402136 -139.85022 -77.910667 -83.16066
-66.819206 172.65869 -77.519791 -88.638786 -0.1020349 43.399498
1510000000 -1.0922378 112.97548 -65.796036 150.97696 -70.959274 163.5097
-65.724739 150.92621 -0.24933325 -143.34116 -77.755661 -88.019127
-70.755409 161.89723 -77.567902 -92.411316 -0.10298747 42.423656
1520000000 -1.0797467 93.419029 -57.774349 -139.35072 -78.204132 151.9986
-57.694691 -139.92186 -0.2547527 -146.89777 -78.219803 -91.341393
-78.853287 147.60608 -78.094757 -95.095901 -0.10351571 41.436001
1530000000 -1.0723152 73.897598 -51.913441 -139.28163 -86.393539 -43.291828
-51.920021 -139.46616 -0.25947252 -150.51811 -79.197563 -97.134544
-86.134666 -34.96479 -78.652229 -101.10779 -0.10438961 40.445881
1540000000 -1.0720208 54.27623 -48.501556 -146.62288 -73.250443 -53.320908
-48.502323 -146.75832 -0.270877 -154.20767 -79.27887 -97.819962
-73.359787 -52.103848 -78.785805 -100.75474 -0.1053079 39.449512
1550000000 -1.0817431 34.437706 -46.239925 -155.90692 -68.606316 -62.736591
-46.260437 -155.94241 -0.27440888 -157.9675 -79.552048 -97.403679
-68.740562 -62.617992 -80.082024 -102.55746 -0.10618472 38.453114
1560000000 -1.1016757 14.261001 -44.746826 -166.25766 -65.940155 -73.487381
-44.741478 -166.24574 -0.2836875 -161.80626 -80.198837 -103.07655
-65.891388 -74.230988 -79.794861 -104.39816 -0.10727032 37.453621
1570000000 -1.131909 -6.369266 -43.848297 -177.00055 -64.028084 -84.71888
-43.846321 -176.95493 -0.2897228 -165.72437 -79.986801 -110.80148
-64.021843 -83.520042 -79.649323 -112.22428 -0.10774678 36.455025
1580000000 -1.1723615 -27.53381 -43.536167 171.96992 -62.617649 -94.901733
-43.519798 171.95863 -0.29658467 -169.73485 -81.32132 -112.12301
-62.57235 -94.711365 -82.243813 -113.19053 -0.10751946 35.459278
1590000000 -1.2193706 -49.268299 -43.832443 161.01437 -61.602482 -105.52111
-43.834312 161.05249 -0.30312592 -173.83684 -81.613342 -114.40284
