!Keysight Technologies,N5227B,US58420583,A.13.95.07
!Date: Wednesday, April 06, 2022 15:13:18
!Correction: S11(Full 3 Port(1,2,3)) 
!S12(Full 3 Port(1,2,3)) 
!S13(Full 3 Port(1,2,3)) 
!S21(Full 3 Port(1,2,3)) 
!S22(Full 3 Port(1,2,3)) 
!S23(Full 3 Port(1,2,3)) 
!S31(Full 3 Port(1,2,3)) 
!S32(Full 3 Port(1,2,3)) 
!S33(Full 3 Port(1,2,3)) 
!S3P File: Measurements:
!<S11,S12,S13>,
!<S21,S22,S23>,
!<S31,S32,S33>:
# Hz S  dB   R 50
650000000 -0.30732548 -76.703773 -107.64464 172.91679 -52.542889 -95.823746
-104.74353 -48.872116 -0.068146348 52.140697 -83.881378 -59.879513
-52.522167 -95.777023 -83.392296 -62.061382 -0.081200697 62.905396
660000000 -0.31912267 -86.192345 -96.56102 -118.76998 -52.723698 -101.47059
-101.86226 -85.371269 -0.069337085 49.346581 -83.570648 -77.833076
-52.739845 -101.51154 -84.208237 -69.90226 -0.082286842 61.031509
670000000 -0.33243436 -95.889206 -95.102921 -107.63767 -53.051197 -107.79314
-94.291092 -118.15186 -0.073071487 46.490162 -86.542725 -74.277451
-53.064831 -107.64655 -85.215294 -74.125992 -0.083152153 59.143181
680000000 -0.34639233 -105.81914 -94.160133 -129.98029 -53.433868 -113.72446
-91.345612 -140.25854 -0.075253248 43.557728 -85.526436 -79.358788
-53.452682 -113.52139 -84.963844 -66.735367 -0.083740532 57.239868
690000000 -0.35964257 -116.01553 -93.231926 -103.5116 -53.92091 -119.56506
-94.847939 -117.49678 -0.078980394 40.557178 -87.851509 -66.914856
-53.892338 -119.61575 -88.868172 -71.945541 -0.087155513 55.340515
700000000 -0.3740603 -126.47975 -95.829346 -154.38907 -54.514736 -125.47767
-97.616211 -116.80242 -0.083136939 37.466499 -87.577232 -82.748566
-54.484112 -125.30643 -86.554314 -76.890411 -0.088623427 53.429737
710000000 -0.38860878 -137.21529 -108.90466 -46.247665 -55.105927 -131.44771
-109.06001 150.1658 -0.088955589 34.298237 -91.309769 -88.353485
-55.080151 -131.44128 -88.207581 -89.194313 -0.089318834 51.508827
720000000 -0.40345648 -148.20776 -102.15504 41.353001 -55.921989 -137.41844
-96.427139 15.94702 -0.093240239 31.037825 -92.783226 -72.905647
-55.893692 -138.02625 -92.020256 -65.114616 -0.089642555 49.579224
730000000 -0.41590872 -159.43896 -87.886429 -6.5174909 -56.859356 -144.07971
-89.983345 17.191561 -0.097951628 27.68096 -94.278786 -98.845184
-56.881084 -143.82164 -91.94722 -87.361343 -0.091619618 47.642426
740000000 -0.4263182 -170.87355 -86.261314 10.086307 -58.070034 -150.36391
-85.841171 19.500549 -0.10336926 24.221693 -95.318336 -113.37812
-58.092426 -150.34569 -92.068604 -71.813065 -0.093643762 45.719761
750000000 -0.43494105 177.53345 -82.37645 10.289553 -59.611298 -156.24606
-82.992668 5.0896935 -0.10765375 20.646673 -97.513275 -73.823189
-59.578587 -156.31752 -99.073296 -61.78648 -0.093385682 43.781097
760000000 -0.4410046 165.8429 -80.776627 -1.7578748 -61.669189 -163.02307
-81.027557 0.63838059 -0.11453387 16.951513 -93.249031 -59.535988
-61.661224 -162.8571 -101.86684 -116.04004 -0.094223149 41.840923
770000000 -0.44366091 154.10306 -78.137505 -7.0275807 -64.565079 -167.82773
-78.471848 -8.358943 -0.12086934 13.120088 -100.22398 -101.44278
-64.470337 -168.64954 -103.20332 -69.392288 -0.095676072 39.891525
780000000 -0.44267374 142.37787 -77.240807 -15.571273 -68.928452 -167.56419
-77.19796 -16.188347 -0.1275336 9.1371508 -97.94278 -12.95059
-68.881172 -169.83736 -106.62406 135.26996 -0.097153008 37.933495
790000000 -0.43880513 130.72542 -75.831589 -24.084805 -77.643875 -153.29619
-76.29467 -24.776239 -0.13514996 4.9897642 -108.24551 -150.14259
-78.007179 -154.77377 -104.57674 -157.3605 -0.097256787 35.968777
800000000 -0.43273738 119.19053 -75.697075 -28.303524 -76.610352 -42.569721
-75.247635 -29.903187 -0.14414085 0.66677618 -107.29995 -30.920107
-77.249901 -38.829044 -104.85321 15.02108 -0.098642886 33.994709
810000000 -0.42471987 107.82018 -75.55423 -36.464554 -68.338501 -28.033747
-75.796501 -33.346527 -0.15330763 -3.8566911 -101.04543 17.165493
-68.110359 -28.40827 -103.8932 1.5823029 -0.098662056 31.997234
820000000 -0.41605279 96.649773 -76.653069 -41.784077 -63.856804 -30.801323
-76.524925 -39.963703 -0.16345005 -8.6004467 -98.611328 41.302757
-63.830338 -30.782518 -97.967773 52.052361 -0.099586591 30.004715
830000000 -0.40708286 85.711868 -78.238884 -46.299633 -60.88113 -36.088413
-78.424576 -49.590694 -0.17498329 -13.583508 -96.541656 90.997131
-60.958107 -36.338497 -99.19384 60.021996 -0.10039796 28.002237
840000000 -0.39815918 75.025848 -82.155655 -45.068409 -58.818081 -41.607891
-82.482506 -49.387875 -0.18746394 -18.835604 -96.823967 85.622002
-58.812332 -41.616806 -95.616135 34.550297 -0.099491671 25.984816
850000000 -0.38759229 64.602051 -92.209816 3.4319358 -57.128109 -47.332542
-92.715858 15.497409 -0.20254482 -24.384232 -95.312462 107.74718
-57.152222 -47.262516 -96.871635 65.435791 -0.099491186 23.961645
860000000 -0.37812579 54.428608 -81.115967 83.78373 -55.761448 -53.161224
-81.969841 83.266808 -0.2188089 -30.294607 -94.197845 49.776161
-55.760468 -53.347519 -95.502289 65.642189 -0.099414542 21.93132
870000000 -0.3676303 44.502983 -74.501854 81.56636 -54.58971 -58.992603
-74.590965 83.448891 -0.23826641 -36.606052 -93.642929 56.467724
-54.647079 -58.976997 -94.570511 55.111385 -0.10147945 19.889372
880000000 -0.35974336 34.801876 -70.228905 79.454628 -53.60614 -64.527565
-70.199005 79.218781 -0.26084867 -43.383995 -92.624756 32.929813
-53.603764 -64.653191 -92.695724 38.697536 -0.10295432 17.837206
890000000 -0.35341442 25.306084 -67.527992 74.817802 -52.701618 -70.439682
-67.60955 74.867783 -0.28874871 -50.70211 -93.041725 9.5033264
-52.733295 -70.324089 -92.693604 32.891457 -0.10368866 15.765262
900000000 -0.34814179 15.979134 -65.966133 68.793968 -51.917892 -75.807686
-66.071404 69.128235 -0.32051191 -58.658916 -97.611908 -16.586498
-51.921734 -75.807701 -95.790642 -0.95548916 -0.1052596 13.667063
910000000 -0.34487852 6.7724872 -66.106567 64.634598 -51.216217 -81.56282
-66.037224 65.118141 -0.35768628 -67.371567 -95.781769 37.378925
-51.211971 -81.38353 -97.153549 -0.48171762 -0.1069885 11.563743
920000000 -0.34458676 -2.347203 -69.39933 72.3564 -50.554932 -86.998245
-69.445282 71.918213 -0.40292981 -76.986588 -113.22175 -36.498856
-50.541763 -86.978592 -101.87123 30.457422 -0.10896398 9.4480104
930000000 -0.34753418 -11.422445 -68.994881 168.13158 -49.946259 -92.476242
-68.939873 169.41933 -0.45669755 -87.689995 -101.34779 24.289581
-49.939014 -92.471413 -101.89225 4.4882622 -0.11010063 7.3175273
940000000 -0.35234839 -20.517307 -56.65638 -171.77496 -49.376152 -98.12075
-56.614815 -171.67064 -0.52347422 -99.717171 -105.08825 -99.304131
-49.377304 -98.092064 -100.65141 157.63977 -0.11064037 5.188107
950000000 -0.36108008 -29.680735 -48.469715 -177.16168 -48.838299 -103.64606
-48.46944 -177.00998 -0.60534608 -113.39184 -92.347092 157.40158
-48.850552 -103.8019 -96.332352 149.77051 -0.11039779 3.0469871
960000000 -0.37308621 -38.991413 -41.877796 172.80373 -48.342117 -109.48033
-41.890797 172.91646 -0.70907944 -129.10637 -90.631363 145.32385
-48.340202 -109.55893 -87.290939 154.28716 -0.11090664 0.90281653
970000000 -0.39186016 -48.544556 -36.075069 160.17709 -47.84227 -115.49291
-36.080997 160.27342 -0.83754593 -147.37791 -81.981819 150.42548
-47.851673 -115.29265 -82.693214 148.32852 -0.11089057 -1.2500132
980000000 -0.4194133 -58.462791 -30.73773 145.30371 -47.369282 -121.40894
-30.738649 145.41228 -1.0001875 -168.8018 -77.612358 132.75648
-47.374207 -121.41491 -77.669525 135.88655 -0.11077955 -3.4142089
990000000 -0.46249318 -68.914803 -25.736536 128.05054 -46.89727 -127.79327
-25.737228 128.13895 -1.2013344 165.97964 -73.425484 119.79693
-46.891937 -127.71248 -73.401688 118.31407 -0.11165541 -5.5988021
1000000000 -0.53717625 -80.139923 -21.049856 108.20157 -46.433983 -134.60663
-21.048712 108.28347 -1.4465905 136.45798 -69.115715 100.5796
-46.441677 -134.50447 -69.256828 100.34744 -0.11273915 -7.8012562
1010000000 -0.67868835 -92.441139 -16.71386 85.645958 -46.003105 -142.20099
-16.708971 85.724518 -1.7447274 102.54253 -65.175461 77.564072
-46.02702 -142.06097 -65.363937 78.178352 -0.11419828 -10.025767
1020000000 -0.95276636 -106.14624 -12.794757 60.505554 -45.643742 -150.55109
-12.787956 60.574993 -2.1310396 64.831169 -61.812668 54.430698
-45.633415 -150.48079 -61.792538 53.688702 -0.11684719 -12.275245
1030000000 -1.4745928 -121.53894 -9.3672943 33.12635 -45.424782 -160.03499
-9.3574934 33.181725 -2.7076261 24.52244 -58.693851 27.488377
-45.419559 -159.95531 -58.707218 27.24708 -0.11803918 -14.541286
1040000000 -2.4219954 -138.61867 -6.499537 3.9848685 -45.433834 -170.26436
-6.4886241 4.0153041 -3.6786611 -17.11058 -56.137657 -0.86488277
-45.43161 -170.18619 -56.120205 -0.93422979 -0.1194474 -16.815931
1050000000 -4.0375104 -156.71225 -4.2672892 -26.199146 -45.779198 179.28294
-4.257266 -26.195995 -5.3394384 -59.115944 -54.094032 -29.93622
-45.790051 179.26428 -54.090206 -30.193333 -0.11984819 -19.109116
1060000000 -6.5636621 -174.01256 -2.7133043 -56.269478 -46.491062 169.79459
-2.706516 -56.280865 -8.021307 -100.89941 -52.685783 -59.490135
-46.473057 169.7263 -52.673527 -59.311123 -0.11994945 -21.41194
1070000000 -10.165239 172.65872 -1.7788305 -84.848427 -47.435036 162.46982
-1.7738097 -84.864296 -12.054181 -142.92087 -51.839767 -86.993454
-47.44186 162.42683 -51.82436 -86.963936 -0.12140361 -23.732218
1080000000 -14.82585 168.6815 -1.2935228 -110.99406 -48.412144 157.73701
-1.2917098 -111.00549 -17.870901 170.00186 -51.423279 -112.20678
-48.431629 157.71175 -51.41991 -112.09411 -0.12260609 -26.066977
1090000000 -19.52363 -176.33011 -1.0699539 -134.53375 -49.215794 154.77237
-1.0693063 -134.53676 -24.57596 94.687378 -51.262466 -134.73788
-49.237896 154.76828 -51.266697 -134.73224 -0.12429155 -28.420565
1100000000 -20.707277 -148.00531 -0.97054029 -155.8111 -49.831917 152.34325
-0.96933377 -155.80594 -23.300699 7.8821111 -51.223812 -155.11505
-49.800354 152.49852 -51.246498 -155.04721 -0.1269192 -30.79969
1110000000 -19.403437 -134.53566 -0.91956878 -175.30725 -50.273212 149.78568
-0.91793734 -175.30116 -20.584887 -38.972954 -51.293438 -173.50291
-50.286652 149.85205 -51.303875 -173.48563 -0.1287269 -33.204235
1120000000 -18.386925 -131.98239 -0.88384408 166.55789 -50.702312 146.83057
-0.88202989 166.56165 -19.36858 -73.635223 -51.427937 169.26466
-50.702068 146.97861 -51.407753 169.38312 -0.13164437 -35.629196
1130000000 -17.876022 -132.79999 -0.8531388 149.46748 -51.131516 143.71906
-0.8512609 149.47096 -18.954256 -105.19142 -51.561581 153.37282
-51.139565 143.62068 -51.558876 153.41928 -0.13382232 -38.074207
1140000000 -17.613707 -134.40811 -0.82517946 133.2054 -51.624287 140.4586
-0.82369125 133.21149 -18.83008 -135.94455 -51.743317 138.70384
-51.590267 140.4579 -51.767349 138.60092 -0.13634321 -40.542431
1150000000 -17.390804 -136.45203 -0.80218154 117.63382 -52.115646 137.48485
-0.80086273 117.63942 -18.656851 -166.08725 -52.027592 124.61247
-52.089298 137.30774 -51.996582 124.66205 -0.13951802 -43.028458
1160000000 -17.116697 -139.28333 -0.78565586 102.65712 -52.640518 134.74748
-0.78362244 102.66035 -18.287939 165.37302 -52.287228 111.3418
-52.635231 134.57413 -52.264759 111.26093 -0.14137205 -45.531696
1170000000 -16.783697 -143.41638 -0.77359891 88.210556 -53.19035 131.72844
-0.77170575 88.21524 -17.749866 139.51231 -52.623356 98.53994
-53.18169 131.82251 -52.634232 98.452408 -0.14312632 -48.05024
1180000000 -16.436863 -149.1951 -0.76608866 74.235046 -53.805611 129.07787
-0.7630657 74.239975 -17.160896 116.79569 -53.050335 86.127068
-53.821507 129.19725 -53.036377 86.378426 -0.14564061 -50.591629
1190000000 -16.14233 -156.62227 -0.7596575 60.682468 -54.424202 126.90811
-0.7570163 60.685154 -16.634809 97.01635 -53.572742 74.759979
-54.431374 126.78806 -53.570087 74.278236 -0.14809225 -53.153446
1200000000 -15.942447 -165.54826 -0.75341934 47.507248 -54.985977 124.54176
-0.7512449 47.506504 -16.234568 79.734215 -54.190296 63.196735
-55.036282 124.5185 -54.20533 63.040474 -0.15076305 -55.74268
1210000000 -15.861856 -175.79959 -0.74593425 34.663509 -55.679459 121.66989
-0.7428847 34.660637 -15.995308 64.544968 -54.968895 52.417984
-55.725834 121.49351 -54.97448 52.311455 -0.15405647 -58.362171
1220000000 -15.91232 172.76944 -0.73466575 22.105724 -56.587803 119.04736
-0.73286164 22.098299 -15.911881 51.140697 -55.867966 42.439205
-56.551956 118.98326 -55.90852 42.519859 -0.15823857 -61.009018
1230000000 -16.090761 160.25537 -0.72251362 9.7985497 -57.619331 116.80301
-0.72038913 9.7913618 -15.972126 39.290787 -56.965923 33.510223
-57.659256 116.64985 -56.967377 33.520302 -0.16312432 -63.675377
1240000000 -16.379257 146.69887 -0.70779133 -2.2922442 -58.869774 115.25894
-0.70633274 -2.2984431 -16.152363 28.854134 -58.193413 25.635883
-58.919399 115.49828 -58.222584 25.554445 -0.16747151 -66.364525
1250000000 -16.748192 132.10837 -0.69195509 -14.190214 -60.348358 115.78214
-0.69083154 -14.198507 -16.429815 19.757746 -59.585342 18.926945
-60.352753 115.5746 -59.639465 19.315355 -0.17271778 -69.078743
1260000000 -17.157093 116.46815 -0.67680657 -25.921099 -61.959438 117.08332
-0.67592549 -25.931391 -16.77075 11.924839 -61.352222 13.397564
-61.977459 117.32179 -61.402401 13.853747 -0.1756335 -71.806618
1270000000 -17.566288 99.847229 -0.66260052 -37.496883 -64.10183 121.19527
-0.66236717 -37.506241 -17.137667 5.2942157 -63.726772 11.996572
-64.123878 121.86045 -63.678879 11.748743 -0.17854813 -74.561813
1280000000 -17.936508 82.432312 -0.65008533 -48.931595 -66.50415 132.52519
-0.65059352 -48.938805 -17.490965 -0.32659045 -66.586754 18.41354
-66.428513 132.83986 -66.377678 16.94762 -0.18192469 -77.343323
1290000000 -18.233131 64.553696 -0.63942581 -60.232624 -68.458542 154.02246
-0.64028543 -60.23798 -17.805172 -5.1529255 -68.97036 39.058811
-68.487862 154.31015 -68.880852 37.880428 -0.18656491 -80.153297
1300000000 -18.437426 46.500523 -0.63136941 -71.409714 -68.414757 -175.46651
-0.632451 -71.411293 -18.058401 -9.4449453 -68.2155 68.439659
-68.218781 -175.77461 -68.227707 68.194489 -0.19096005 -82.996193
1310000000 -18.552404 28.571791 -0.6250881 -82.468803 -65.990555 -153.36131
-0.62618047 -82.470047 -18.232994 -13.437128 -65.169609 82.594574
-65.787811 -154.33374 -65.217636 82.668076 -0.19430317 -85.87619
1320000000 -18.602819 10.982897 -0.62089807 -93.424553 -62.899395 -141.838
-0.62210298 -93.421066 -18.333519 -17.476938 -62.310905 87.396072
-62.916042 -143.0912 -62.292385 87.256554 -0.19932477 -88.796089
1330000000 -18.615269 -6.0414982 -0.61836761 -104.2774 -60.334538 -139.8896
-0.61927968 -104.27457 -18.381462 -21.761908 -59.794159 85.236946
-60.299583 -140.54289 -59.81049 85.360382 -0.20412029 -91.751152
1340000000 -18.612576 -22.427755 -0.61607111 -115.0351 -58.263474 -140.69746
-0.61681747 -115.02738 -18.403357 -26.383333 -57.684208 80.529991
-58.276695 -140.81255 -57.637108 80.7024 -0.20889673 -94.74202
1350000000 -18.618855 -38.202694 -0.61472684 -125.70454 -56.609482 -143.48329
-0.61533225 -125.69537 -18.423447 -31.40909 -55.894669 74.262489
-56.700203 -143.33727 -55.874962 74.597534 -0.21372017 -97.770386
1360000000 -18.672586 -53.510529 -0.61233348 -136.30278 -55.349766 -146.46542
-0.61245435 -136.29356 -18.481115 -36.7771 -54.369904 67.44561
-55.390003 -146.37251 -54.367012 67.199921 -0.21864471 -100.82337
1370000000 -18.80583 -68.517334 -0.61006922 -146.83862 -54.308731 -149.32774
-0.61027497 -146.82797 -18.594959 -42.402752 -53.089157 59.493477
-54.299122 -149.27808 -53.072899 59.663334 -0.22435075 -103.89948
1380000000 -19.034712 -83.302658 -0.60755461 -157.3187 -53.45686 -152.76163
-0.60753214 -157.30595 -18.775393 -48.150459 -51.903347 51.697559
-53.461582 -152.43024 -51.895809 51.672302 -0.22977521 -107.00421
1390000000 -19.353384 -97.977577 -0.60488915 -167.7498 -52.82679 -155.46301
-0.60375136 -167.73906 -19.028599 -53.93045 -50.762768 43.275539
-52.822346 -155.15099 -50.776138 43.110294 -0.23559572 -110.13725
1400000000 -19.747984 -112.78178 -0.60130495 -178.13657 -52.205956 -156.59026
-0.60017246 -178.13274 -19.351728 -59.628639 -49.832737 33.883163
-52.162983 -156.52295 -49.839954 33.80386 -0.24104501 -113.29829
1410000000 -20.213707 -127.92316 -0.59754962 171.50186 -51.443386 -157.8156
-0.59604579 171.50388 -19.741943 -65.095268 -49.064407 24.412798
-51.423523 -157.67613 -49.049255 24.279585 -0.24532126 -116.49349
1420000000 -20.750172 -143.57864 -0.59345114 161.15965 -50.624199 -159.54121
-0.59282947 161.16376 -20.182707 -70.257202 -48.424431 15.160694
-50.662838 -159.36166 -48.418736 15.107412 -0.24931544 -119.73218
1430000000 -21.333212 -159.82254 -0.59016263 150.83807 -49.824524 -161.66902
-0.58909678 150.84029 -20.666132 -74.986031 -47.889378 6.2095532
-49.829025 -161.70407 -47.897762 6.1681752 -0.25376967 -123.01721
1440000000 -21.930445 -176.85992 -0.58759791 140.52695 -49.078571 -164.60805
-0.58572131 140.52596 -21.177719 -79.120171 -47.387482 -2.4805198
-49.082478 -164.65831 -47.390625 -2.5002878 -0.25793684 -126.34595
1450000000 -22.493471 165.09294 -0.58514881 130.22571 -48.419201 -167.52899
-0.58361524 130.22081 -21.683893 -82.511208 -46.947498 -11.436732
-48.418133 -167.46613 -46.951405 -11.422241 -0.26290643 -129.7182
1460000000 -22.971006 146.03658 -0.58352655 119.92429 -47.73571 -170.79889
-0.5830611 119.9177 -22.140554 -85.160934 -46.575069 -20.437283
-47.755253 -170.78325 -46.574436 -20.428406 -0.26624721 -133.13734
1470000000 -23.31007 126.19006 -0.58313864 109.62032 -47.130539 -174.28217
-0.58284801 109.61518 -22.508984 -87.1689 -46.265823 -29.143629
-47.143982 -174.32014 -46.277607 -29.146627 -0.27131137 -136.60698
1480000000 -23.458532 106.17464 -0.58472311 99.311752 -46.595093 -178.25424
-0.58459508 99.30703 -22.747278 -88.776321 -46.002895 -37.731106
-46.595879 -178.17232 -46.008183 -37.712952 -0.27570865 -140.11963
1490000000 -23.39579 86.559837 -0.58726221 88.99601 -46.127903 177.84821
-0.58701485 88.989891 -22.841627 -90.330956 -45.781178 -46.392403
-46.111645 177.82715 -45.778477 -46.450768 -0.28066671 -143.67836
1500000000 -23.159616 67.725266 -0.5909245 78.669136 -45.70467 173.72459
-0.59120619 78.662872 -22.794582 -92.247139 -45.608955 -54.91713
-45.707832 173.7256 -45.615925 -55.016163 -0.28546095 -147.27859
1510000000 -22.82873 49.770905 -0.59553427 68.328171 -45.329842 169.33681
-0.59645694 68.324219 -22.649858 -94.7229 -45.49268 -63.545723
-45.343628 169.27399 -45.486549 -63.653839 -0.29060051 -150.92137
1520000000 -22.48217 32.763824 -0.59998137 57.963337 -45.072388 164.80013
-0.60126776 57.964149 -22.443867 -97.912903 -45.405704 -72.395859
-45.075043 164.70236 -45.394066 -72.359467 -0.29478824 -154.61082
1530000000 -22.161324 16.556053 -0.60566777 47.571438 -44.892792 159.9926
-0.60656053 47.573631 -22.215067 -101.72549 -45.407684 -81.364891
-44.911877 159.93314 -45.416153 -81.31263 -0.29826742 -158.35664
1540000000 -21.899622 0.98595756 -0.61169869 37.146809 -44.841862 155.07414
-0.61259872 37.153614 -21.998442 -106.12244 -45.543644 -90.318466
-44.845833 155.1255 -45.54594 -90.334229 -0.30292046 -162.16148
1550000000 -21.716406 -14.205291 -0.61743027 26.688807 -44.916653 150.19228
-0.61801928 26.693029 -21.824524 -110.98553 -45.779152 -99.320572
-44.926956 150.2355 -45.776848 -99.199783 -0.30719399 -166.02763
1560000000 -21.643951 -29.220102 -0.62290454 16.184584 -45.16301 145.15646
-0.62388623 16.18606 -21.720247 -116.10308 -46.152889 -108.34383
-45.163471 145.24455 -46.164188 -108.30747 -0.31189552 -169.96558
1570000000 -21.700968 -44.236641 -0.62871754 5.6239743 -45.626675 140.32947
-0.62990814 5.6280684 -21.691139 -121.25054 -46.725491 -117.2664
-45.627235 140.26208 -46.745693 -117.39475 -0.31780753 -173.97377
1580000000 -21.88184 -59.529572 -0.63486052 -4.9922371 -46.354427 135.50385
-0.63524425 -4.9850812 -21.741949 -126.27074 -47.589035 -126.20597
-46.359573 135.71414 -47.598999 -126.15245 -0.32441214 -178.05821
1590000000 -22.178608 -75.558609 -0.64012456 -15.67841 -47.4673 131.05815
-0.63988703 -15.669053 -21.872353 -130.9187 -48.845051 -134.46266
-47.48101 131.18297 -48.824829 -134.48346 -0.33111003 177.78693
