# Hz S  dB   R 50
650000000 -0.30732548 -76.703773 -104.74353 -48.872116 -52.522167 -95.777023 -68.202408 83.226471 -68.62796 105.12725 -79.975548 77.027626 -107.64464 172.91679 -0.068146348 52.140697 -83.392296 -62.061382 NaN NaN NaN NaN NaN NaN -52.542889 -95.823746 -83.881378 -59.879513 -0.081200697 62.905396 -77.377968 -40.311066 NaN NaN NaN NaN -68.103699 81.364838 NaN NaN -76.831589 -35.917339 -0.06574291 121.4503 -60.479664 3.310729 NaN NaN -68.381874 106.2408 NaN NaN NaN NaN -60.317478 3.4560871 -0.052338954 124.01662 -70.319138 22.758846 -79.302795 71.578499 NaN NaN NaN NaN NaN NaN -70.257629 24.480078 -0.044810902 135.58162 
660000000 -0.31912267 -86.192345 -101.86226 -85.371269 -52.739845 -101.51154 -70.039047 68.527382 -68.623192 98.911819 -82.519432 45.986591 -96.56102 -118.76998 -0.069337085 49.346581 -84.208237 -69.90226 NaN NaN NaN NaN NaN NaN -52.723698 -101.47059 -83.570648 -77.833076 -0.082286842 61.031509 -77.555344 -50.789993 NaN NaN NaN NaN -69.793137 67.673286 NaN NaN -77.236893 -43.867512 -0.067408256 120.55333 -59.648418 -6.7470007 NaN NaN -68.429428 100.11716 NaN NaN NaN NaN -59.59362 -6.8691807 -0.054245707 123.17642 -71.19416 18.644457 -82.980476 49.049053 NaN NaN NaN NaN NaN NaN -70.960258 17.949974 -0.046743333 134.90384 
670000000 -0.33243436 -95.889206 -94.291092 -118.15186 -53.064831 -107.64655 -70.62632 78.322403 -68.081917 95.643379 -87.868416 38.292992 -95.102921 -107.63767 -0.073071487 46.490162 -85.215294 -74.125992 NaN NaN NaN NaN NaN NaN -53.051197 -107.79314 -86.542725 -74.277451 -0.083152153 59.143181 -78.333122 -51.63142 NaN NaN NaN NaN -70.515739 79.327927 NaN NaN -79.011223 -48.321396 -0.067919485 119.66376 -60.801201 -10.928082 NaN NaN -68.235596 95.669456 NaN NaN NaN NaN -60.814949 -11.39758 -0.054418795 122.34692 -71.905388 24.721607 -85.024162 43.567589 NaN NaN NaN NaN NaN NaN -71.948875 25.049364 -0.047137659 134.23691 
680000000 -0.34639233 -105.81914 -91.345612 -140.25854 -53.452682 -113.52139 -69.991074 80.509781 -68.1726 89.079979 -89.900696 45.094833 -94.160133 -129.98029 -0.075253248 43.557728 -84.963844 -66.735367 NaN NaN NaN NaN NaN NaN -53.433868 -113.72446 -85.526436 -79.358788 -0.083740532 57.239868 -79.799118 -49.855793 NaN NaN NaN NaN -70.096535 82.746269 NaN NaN -79.888802 -48.45451 -0.067079484 118.76998 -61.382587 -12.674466 NaN NaN -68.21199 89.696861 NaN NaN NaN NaN -61.366341 -12.200094 -0.054405075 121.51578 -71.074982 27.485374 -86.486153 46.610962 NaN NaN NaN NaN NaN NaN -70.840775 26.052984 -0.046793375 133.56799 
690000000 -0.35964257 -116.01553 -94.847939 -117.49678 -53.892338 -119.61575 -68.215126 84.734467 -67.708023 86.327957 -89.531815 65.735283 -93.231926 -103.5116 -0.078980394 40.557178 -88.868172 -71.945541 NaN NaN NaN NaN NaN NaN -53.92091 -119.56506 -87.851509 -66.914856 -0.087155513 55.340515 -79.332069 -47.297485 NaN NaN NaN NaN -68.083847 84.24192 NaN NaN -80.13884 -41.644474 -0.068676129 117.87729 -61.602161 -10.255143 NaN NaN -67.823082 86.615189 NaN NaN NaN NaN -61.581337 -8.9002724 -0.055812933 120.68777 -70.594055 21.877724 -88.486656 13.044751 NaN NaN NaN NaN NaN NaN -70.540337 19.040964 -0.046851866 132.90079 
700000000 -0.3740603 -126.47975 -97.616211 -116.80242 -54.484112 -125.30643 -66.427826 71.499748 -67.276314 80.82798 -85.871918 23.861744 -95.829346 -154.38907 -0.083136939 37.466499 -86.554314 -76.890411 NaN NaN NaN NaN NaN NaN -54.514736 -125.47767 -87.577232 -82.748566 -0.088623427 53.429737 -79.908661 -46.070927 NaN NaN NaN NaN -66.170433 71.141396 NaN NaN -79.91877 -42.574631 -0.069518596 116.98621 -61.077972 -10.839938 NaN NaN -67.100266 81.196632 NaN NaN NaN NaN -60.977253 -10.5509 -0.056310415 119.86124 -70.529091 15.829775 -88.641106 4.81212 NaN NaN NaN NaN NaN NaN -70.328758 15.401049 -0.047242437 132.2368 
710000000 -0.38860878 -137.21529 -109.06001 150.1658 -55.080151 -131.44128 -66.266159 55.517925 -67.314194 72.333923 -99.201569 -41.269531 -108.90466 -46.247665 -0.088955589 34.298237 -88.207581 -89.194313 NaN NaN NaN NaN NaN NaN -55.105927 -131.44771 -91.309769 -88.353485 -0.089318834 51.508827 -79.282997 -53.13858 NaN NaN NaN NaN -66.170052 54.968197 NaN NaN -80.008415 -50.23204 -0.070283212 116.09171 -61.208519 -16.657665 NaN NaN -67.169716 72.513268 NaN NaN NaN NaN -60.973026 -16.208941 -0.05660677 119.03319 -70.789063 10.808442 -91.395058 -48.377769 NaN NaN NaN NaN NaN NaN -70.958771 11.346668 -0.047515098 131.5751 
720000000 -0.40345648 -148.20776 -96.427139 15.94702 -55.893692 -138.02625 -66.762978 54.130306 -67.112053 69.63707 -86.787498 46.871948 -102.15504 41.353001 -0.093240239 31.037825 -92.020256 -65.114616 NaN NaN NaN NaN NaN NaN -55.921989 -137.41844 -92.783226 -72.905647 -0.089642555 49.579224 -80.150322 -58.071636 NaN NaN NaN NaN -67.026123 52.438759 NaN NaN -81.421005 -50.206944 -0.070815876 115.19314 -62.029018 -20.487289 NaN NaN -67.187225 70.222382 NaN NaN NaN NaN -61.866589 -20.723087 -0.056920875 118.2027 -71.21122 7.5818548 -91.701302 74.41819 NaN NaN NaN NaN NaN NaN -71.517296 8.3399706 -0.047308773 130.90865 
730000000 -0.41590872 -159.43896 -89.983345 17.191561 -56.881084 -143.82164 -66.400452 45.204197 -67.016273 64.090744 -90.333839 1.4945996 -87.886429 -6.5174909 -0.097951628 27.68096 -91.94722 -87.361343 NaN NaN NaN NaN NaN NaN -56.859356 -144.07971 -94.278786 -98.845184 -0.091619618 47.642426 -80.562744 -52.425976 NaN NaN NaN NaN -66.44072 44.907524 NaN NaN -80.98848 -48.737801 -0.071930178 114.28437 -62.671963 -15.615553 NaN NaN -66.974594 62.960228 NaN NaN NaN NaN -62.586746 -16.644926 -0.056994189 117.36399 -71.807053 12.188704 -92.056152 46.682076 NaN NaN NaN NaN NaN NaN -71.825394 11.056585 -0.047246322 130.23425 
740000000 -0.4263182 -170.87355 -85.841171 19.500549 -58.092426 -150.34569 -66.60421 42.082802 -66.910881 58.512783 -90.621002 11.868607 -86.261314 10.086307 -0.10336926 24.221693 -92.068604 -71.813065 NaN NaN NaN NaN NaN NaN -58.070034 -150.36391 -95.318336 -113.37812 -0.093643762 45.719761 -80.614426 -48.918407 NaN NaN NaN NaN -66.761307 41.137623 NaN NaN -81.271729 -43.149967 -0.073931374 113.37969 -62.288544 -11.79122 NaN NaN -66.901215 58.260136 NaN NaN NaN NaN -62.288052 -12.945809 -0.058761671 116.52744 -71.417473 13.187126 -90.222557 21.776163 NaN NaN NaN NaN NaN NaN -71.526047 13.179428 -0.048919234 129.56094 
750000000 -0.43494105 177.53345 -82.992668 5.0896935 -59.578587 -156.31752 -67.286926 42.428196 -67.160446 53.556732 -92.019028 -11.761114 -82.37645 10.289553 -0.10765375 20.646673 -99.073296 -61.78648 NaN NaN NaN NaN NaN NaN -59.611298 -156.24606 -97.513275 -73.823189 -0.093385682 43.781097 -81.438126 -53.759041 NaN NaN NaN NaN -67.515984 41.661034 NaN NaN -81.35849 -51.30175 -0.07467477 112.46995 -61.512451 -14.998461 NaN NaN -66.941368 53.962032 NaN NaN NaN NaN -61.571556 -15.076359 -0.059720162 115.68636 -71.173218 9.952323 -91.647095 3.2480605 NaN NaN NaN NaN NaN NaN -70.676384 9.6206007 -0.049823254 128.88187 
760000000 -0.4410046 165.8429 -81.027557 0.63838059 -61.661224 -162.8571 -66.409889 45.474182 -66.7519 47.892704 -88.691673 -11.800638 -80.776627 -1.7578748 -0.11453387 16.951513 -101.86684 -116.04004 NaN NaN NaN NaN NaN NaN -61.669189 -163.02307 -93.249031 -59.535988 -0.094223149 41.840923 -81.766724 -58.549782 NaN NaN NaN NaN -66.478867 45.436069 NaN NaN -82.046097 -49.00597 -0.075867139 111.5654 -61.63324 -18.464478 NaN NaN -66.696991 48.611732 NaN NaN NaN NaN -61.438999 -20.489923 -0.061000131 114.85181 -70.579811 8.419611 -89.349617 -10.073223 NaN NaN NaN NaN NaN NaN -70.612892 6.7551699 -0.051400695 128.20546 
770000000 -0.44366091 154.10306 -78.471848 -8.358943 -64.470337 -168.64954 -64.57103 42.014286 -66.778976 40.734356 -84.255981 -36.278793 -78.137505 -7.0275807 -0.12086934 13.120088 -103.20332 -69.392288 NaN NaN NaN NaN NaN NaN -64.565079 -167.82773 -100.22398 -101.44278 -0.095676072 39.891525 -82.491577 -61.610519 NaN NaN NaN NaN -64.625938 42.044312 NaN NaN -81.188522 -61.215012 -0.077083014 110.65751 -61.858139 -21.768333 NaN NaN -66.839371 40.22636 NaN NaN NaN NaN -61.926121 -22.338772 -0.062170208 114.01448 -70.276283 -0.20025241 -84.162254 -24.504726 NaN NaN NaN NaN NaN NaN -70.443756 -1.0788327 -0.052977879 127.52541 
780000000 -0.44267374 142.37787 -77.19796 -16.188347 -68.881172 -169.83736 -63.748821 24.608015 -67.371208 30.493263 -81.383324 -72.991547 -77.240807 -15.571273 -0.1275336 9.1371508 -106.62406 135.26996 NaN NaN NaN NaN NaN NaN -68.928452 -167.56419 -97.94278 -12.95059 -0.097153008 37.933495 -82.843178 -57.697552 NaN NaN NaN NaN -63.836327 25.709925 NaN NaN -83.579811 -55.334442 -0.07799422 109.75435 -62.169029 -20.122862 NaN NaN -67.4328 31.35759 NaN NaN NaN NaN -62.279015 -21.898018 -0.062674791 113.18113 -71.005981 -2.3592198 -82.084373 -62.500793 NaN NaN NaN NaN NaN NaN -71.192513 -2.0051992 -0.053470619 126.8485 
790000000 -0.43880513 130.72542 -76.29467 -24.776239 -78.007179 -154.77377 -64.696671 15.878101 -68.241508 23.62088 -80.955925 -112.34519 -75.831589 -24.084805 -0.13514996 4.9897642 -104.57674 -157.3605 NaN NaN NaN NaN NaN NaN -77.643875 -153.29619 -108.24551 -150.14259 -0.097256787 35.968777 -83.104591 -62.611752 NaN NaN NaN NaN -64.631294 16.561203 NaN NaN -83.350227 -66.820374 -0.078718491 108.86089 -62.326122 -21.158257 NaN NaN -68.179306 24.719015 NaN NaN NaN NaN -62.585213 -21.859598 -0.063292824 112.36053 -71.392822 -5.0209088 -81.521912 -103.43012 NaN NaN NaN NaN NaN NaN -71.573425 -5.0816302 -0.054339197 126.18137 
800000000 -0.43273738 119.19053 -75.247635 -29.903187 -77.249901 -38.829044 -65.018822 8.9483967 -69.285866 18.036018 -81.135162 -140.96362 -75.697075 -28.303524 -0.14414085 0.66677618 -104.85321 15.02108 NaN NaN NaN NaN NaN NaN -76.610352 -42.569721 -107.29995 -30.920107 -0.098642886 33.994709 -83.893501 -61.98291 NaN NaN NaN NaN -65.053802 9.7088242 NaN NaN -83.815292 -62.753403 -0.079973944 107.97266 -62.329662 -19.920977 NaN NaN -69.266296 18.333004 NaN NaN NaN NaN -62.662521 -20.363394 -0.063260742 111.54589 -71.861069 -4.1485457 -80.868614 -134.89905 NaN NaN NaN NaN NaN NaN -71.63221 -5.322154 -0.055037793 125.52418 
810000000 -0.42471987 107.82018 -75.796501 -33.346527 -68.110359 -28.40827 -65.719269 4.271143 -70.41153 12.156716 -82.908829 -159.60519 -75.55423 -36.464554 -0.15330763 -3.8566911 -103.8932 1.5823029 NaN NaN NaN NaN NaN NaN -68.338501 -28.033747 -101.04543 17.165493 -0.098662056 31.997234 -84.351784 -51.258163 NaN NaN NaN NaN -65.789421 4.5391173 NaN NaN -84.068825 -58.906788 -0.080292203 107.07696 -62.129299 -19.846437 NaN NaN -70.13353 14.645585 NaN NaN NaN NaN -62.448017 -18.630934 -0.06321907 110.72737 -71.822052 -4.1682191 -83.021027 -155.19783 NaN NaN NaN NaN NaN NaN -71.856323 -3.8332696 -0.054698579 124.86543 
820000000 -0.41605279 96.649773 -76.524925 -39.963703 -63.830338 -30.782518 -66.17765 3.1287537 -71.501862 10.343062 -83.330223 -171.71277 -76.653069 -41.784077 -0.16345005 -8.6004467 -97.967773 52.052361 NaN NaN NaN NaN NaN NaN -63.856804 -30.801323 -98.611328 41.302757 -0.099586591 30.004715 -83.851288 -60.189056 NaN NaN NaN NaN -66.266754 3.4064717 NaN NaN -84.225327 -51.311535 -0.080815069 106.18806 -61.86565 -19.051697 NaN NaN -71.388138 11.761238 NaN NaN NaN NaN -61.848309 -18.195408 -0.063724846 109.91693 -71.585907 -5.0935926 -82.279121 -174.33446 NaN NaN NaN NaN NaN NaN -71.597488 -4.070714 -0.054951832 124.2149 
830000000 -0.40708286 85.711868 -78.424576 -49.590694 -60.958107 -36.338497 -66.427368 3.047729 -72.714508 9.8324623 -82.832962 167.21844 -78.238884 -46.299633 -0.17498329 -13.583508 -99.19384 60.021996 NaN NaN NaN NaN NaN NaN -60.88113 -36.088413 -96.541656 90.997131 -0.10039796 28.002237 -83.350838 -58.373913 NaN NaN NaN NaN -66.70182 3.348484 NaN NaN -84.537292 -59.274567 -0.081812106 105.29645 -61.317173 -19.934288 NaN NaN -72.75634 9.0445385 NaN NaN NaN NaN -61.361813 -19.815096 -0.064225405 109.11027 -71.407318 -8.3524475 -82.532852 171.48471 NaN NaN NaN NaN NaN NaN -71.2435 -9.9140835 -0.055608336 123.56834 
840000000 -0.39815918 75.025848 -82.482506 -49.387875 -58.812332 -41.616806 -65.60701 4.5912075 -73.590385 8.9913864 -84.79467 148.11081 -82.155655 -45.068409 -0.18746394 -18.835604 -95.616135 34.550297 NaN NaN NaN NaN NaN NaN -58.818081 -41.607891 -96.823967 85.622002 -0.099491671 25.984816 -84.395081 -67.293236 NaN NaN NaN NaN -65.632568 4.5803108 NaN NaN -85.381279 -64.23822 -0.082392201 104.40123 -60.977299 -24.258875 NaN NaN -73.273865 6.8429184 NaN NaN NaN NaN -60.958981 -24.060108 -0.064865127 108.29779 -71.368614 -13.428898 -85.519966 136.74272 NaN NaN NaN NaN NaN NaN -71.500404 -13.684743 -0.055721872 122.91968 
850000000 -0.38759229 64.602051 -92.715858 15.497409 -57.152222 -47.262516 -65.193123 -2.9385521 -75.261848 3.2689929 -86.101936 121.37318 -92.209816 3.4319358 -0.20254482 -24.384232 -96.871635 65.435791 NaN NaN NaN NaN NaN NaN -57.128109 -47.332542 -95.312462 107.74718 -0.099491186 23.961645 -86.040825 -72.202103 NaN NaN NaN NaN -65.129715 -2.6715627 NaN NaN -85.210297 -75.730499 -0.083098903 103.50159 -61.045143 -28.471834 NaN NaN -75.182144 4.9625626 NaN NaN NaN NaN -61.118507 -28.041122 -0.065366842 107.48247 -72.209503 -16.982738 -88.253372 123.79214 NaN NaN NaN NaN NaN NaN -72.275017 -14.127539 -0.055317868 122.26604 
860000000 -0.37812579 54.428608 -81.969841 83.266808 -55.760468 -53.347519 -65.044846 -8.1628199 -76.852501 -0.71393955 -94.378693 167.53772 -81.115967 83.78373 -0.2188089 -30.294607 -95.502289 65.642189 NaN NaN NaN NaN NaN NaN -55.761448 -53.161224 -94.197845 49.776161 -0.099414542 21.93132 -85.923271 -70.464096 NaN NaN NaN NaN -65.008156 -8.7651291 NaN NaN -87.368149 -79.364098 -0.083976321 102.60073 -61.35482 -31.705111 NaN NaN -76.817459 1.961498 NaN NaN NaN NaN -61.517582 -29.774794 -0.066237018 106.66253 -73.07991 -14.436954 -96.872734 -172.75887 NaN NaN NaN NaN NaN NaN -73.029213 -17.708523 -0.055780094 121.60315 
870000000 -0.3676303 44.502983 -74.590965 83.448891 -54.647079 -58.976997 -64.912071 -13.989971 -79.127045 -0.87389165 -91.249504 -166.73331 -74.501854 81.56636 -0.23826641 -36.606052 -94.570511 55.111385 NaN NaN NaN NaN NaN NaN -54.58971 -58.992603 -93.642929 56.467724 -0.10147945 19.889372 -88.041611 -77.132332 NaN NaN NaN NaN -64.855537 -15.44266 NaN NaN -87.902122 -82.382339 -0.085448064 101.70007 -61.627018 -32.242516 NaN NaN -79.053299 -1.2315027 NaN NaN NaN NaN -61.670479 -31.746828 -0.067992017 105.84219 -73.280846 -11.87835 -88.819054 -156.5643 NaN NaN NaN NaN NaN NaN -73.080154 -11.988613 -0.05738594 120.93724 
880000000 -0.35974336 34.801876 -70.199005 79.218781 -53.603764 -64.653191 -64.96048 -22.28299 -84.383942 -5.3158908 -87.221443 -172.31593 -70.228905 79.454628 -0.26084867 -43.383995 -92.695724 38.697536 NaN NaN NaN NaN NaN NaN -53.60614 -64.527565 -92.624756 32.929813 -0.10295432 17.837206 -88.974716 -87.709488 NaN NaN NaN NaN -64.812813 -21.336361 NaN NaN -89.653809 -91.738586 -0.086187035 100.80152 -61.881191 -31.887022 NaN NaN -83.752518 -11.172896 NaN NaN NaN NaN -61.704094 -30.330353 -0.068474218 105.02465 -72.931084 -9.2605419 -86.319542 -163.84749 NaN NaN NaN NaN NaN NaN -73.006332 -9.186944 -0.05851905 120.27106 
890000000 -0.35341442 25.306084 -67.60955 74.867783 -52.733295 -70.324089 -65.300713 -29.081104 -97.736282 14.421335 -84.528969 -179.42731 -67.527992 74.817802 -0.28874871 -50.70211 -92.693604 32.891457 NaN NaN NaN NaN NaN NaN -52.701618 -70.439682 -93.041725 9.5033264 -0.10368866 15.765262 -91.436996 -77.680344 NaN NaN NaN NaN -65.24704 -28.715437 NaN NaN -91.922249 -83.13678 -0.086078957 99.905014 -61.715561 -29.993385 NaN NaN -94.836601 22.483337 NaN NaN NaN NaN -61.543056 -29.358736 -0.068995096 104.21158 -72.249298 -9.106658 -84.364395 173.21449 NaN NaN NaN NaN NaN NaN -72.206215 -8.7737875 -0.05954051 119.60979 
900000000 -0.34814179 15.979134 -66.071404 69.128235 -51.921734 -75.807701 -66.062767 -35.417366 -86.190048 140.95026 -84.195076 169.43706 -65.966133 68.793968 -0.32051191 -58.658916 -95.790642 -0.95548916 NaN NaN NaN NaN NaN NaN -51.917892 -75.807686 -97.611908 -16.586498 -0.1052596 13.667063 -91.608833 -90.355324 NaN NaN NaN NaN -66.013168 -35.729439 NaN NaN -95.118935 -82.696724 -0.087086134 99.003235 -61.115532 -31.068399 NaN NaN -85.606102 133.05347 NaN NaN NaN NaN -60.849167 -31.37985 -0.069417067 103.39242 -71.805496 -13.162583 -83.448212 161.17722 NaN NaN NaN NaN NaN NaN -71.750511 -14.497622 -0.060230829 118.94903 
910000000 -0.34487852 6.7724872 -66.037224 65.118141 -51.211971 -81.38353 -66.62825 -40.275326 -79.582123 134.8799 -83.071457 156.87422 -66.106567 64.634598 -0.35768628 -67.371567 -97.153549 -0.48171762 NaN NaN NaN NaN NaN NaN -51.216217 -81.56282 -95.781769 37.378925 -0.1069885 11.563743 -93.02813 -90.777733 NaN NaN NaN NaN -66.744217 -39.790165 NaN NaN -94.528816 -71.591652 -0.08766026 98.10482 -60.573128 -34.654999 NaN NaN -79.558502 137.51324 NaN NaN NaN NaN -60.439526 -35.662987 -0.06987197 102.5817 -71.952133 -16.544744 -82.060219 151.23868 NaN NaN NaN NaN NaN NaN -71.782005 -16.592731 -0.060751438 118.29161 
920000000 -0.34458676 -2.347203 -69.445282 71.918213 -50.541763 -86.978592 -67.585968 -43.515865 -76.309021 129.51019 -83.203598 149.7307 -69.39933 72.3564 -0.40292981 -76.986588 -101.87123 30.457422 NaN NaN NaN NaN NaN NaN -50.554932 -86.998245 -113.22175 -36.498856 -0.10896398 9.4480104 -96.836601 -91.75592 NaN NaN NaN NaN -67.60257 -43.948689 NaN NaN -94.031219 -88.05896 -0.088587992 97.203575 -60.408245 -39.956944 NaN NaN -75.885933 130.65866 NaN NaN NaN NaN -60.481949 -40.621994 -0.070661016 101.77294 -72.076378 -19.081196 -82.935394 146.75323 NaN NaN NaN NaN NaN NaN -72.144012 -21.887217 -0.060932238 117.63844 
930000000 -0.34753418 -11.422445 -68.939873 169.41933 -49.939014 -92.471413 -68.092606 -44.949471 -73.632179 125.8823 -83.289497 136.37857 -68.994881 168.13158 -0.45669755 -87.689995 -101.89225 4.4882622 NaN NaN NaN NaN NaN NaN -49.946259 -92.476242 -101.34779 24.289581 -0.11010063 7.3175273 -95.297546 -67.759445 NaN NaN NaN NaN -68.146317 -45.035103 NaN NaN -100.69371 -29.774977 -0.089648865 96.297783 -60.719536 -44.679451 NaN NaN -73.732857 122.94712 NaN NaN NaN NaN -60.733849 -44.352627 -0.071308717 100.96416 -72.081825 -23.180536 -84.141655 137.65515 NaN NaN NaN NaN NaN NaN -72.338303 -21.637066 -0.060850397 116.98457 
940000000 -0.35234839 -20.517307 -56.614815 -171.67064 -49.377304 -98.092064 -68.809235 -47.134102 -72.048538 122.06647 -83.775024 131.83629 -56.65638 -171.77496 -0.52347422 -99.717171 -100.65141 157.63977 NaN NaN NaN NaN NaN NaN -49.376152 -98.12075 -105.08825 -99.304131 -0.11064037 5.188107 -106.25541 -15.664426 NaN NaN NaN NaN -68.695442 -47.335651 NaN NaN -110.21073 85.007065 -0.091341496 95.395378 -61.118866 -48.363232 NaN NaN -71.897797 120.46265 NaN NaN NaN NaN -61.035049 -48.998024 -0.072284438 100.15841 -73.038246 -23.537239 -83.558678 131.26476 NaN NaN NaN NaN NaN NaN -72.933144 -24.525478 -0.062148113 116.33084 
950000000 -0.36108008 -29.680735 -48.46944 -177.00998 -48.850552 -103.8019 -69.552727 -49.579441 -70.625366 116.45855 -83.669403 129.99422 -48.469715 -177.16168 -0.60534608 -113.39184 -96.332352 149.77051 NaN NaN NaN NaN NaN NaN -48.838299 -103.64606 -92.347092 157.40158 -0.11039779 3.0469871 -105.41824 36.535496 NaN NaN NaN NaN -69.24839 -48.553234 NaN NaN -109.93279 83.96492 -0.092834346 94.483475 -61.465427 -51.058399 NaN NaN -70.16993 117.81332 NaN NaN NaN NaN -61.440079 -51.434608 -0.073900066 99.345856 -73.189735 -23.079525 -83.947845 127.13773 NaN NaN NaN NaN NaN NaN -72.984406 -24.629728 -0.064022906 115.67711 
