# Hz S  dB   R 50
650000000 -0.30732548 -76.703773 -107.64464 172.91679 -52.542889 -95.823746 -0.32144594 -78.23642 -104.74353 -48.872116 -0.068146348 52.140697 -83.881378 -59.879513 0 0 -52.522167 -95.777023 -83.392296 -62.061382 -0.081200697 62.905396 -52.296101 -95.98201 -68.103699 81.364838 0 0 -52.307732 -96.105125 -0.073122911 63.997944 
660000000 -0.31912267 -86.192345 -96.56102 -118.76998 -52.723698 -101.47059 -0.33695149 -88.023247 -101.86226 -85.371269 -0.069337085 49.346581 -83.570648 -77.833076 0 0 -52.739845 -101.51154 -84.208237 -69.90226 -0.082286842 61.031509 -52.450737 -102.09577 -69.793137 67.673286 0 0 -52.423397 -101.86838 -0.071258441 62.088215 
670000000 -0.33243436 -95.889206 -95.102921 -107.63767 -53.051197 -107.79314 -0.35308963 -98.035934 -94.291092 -118.15186 -0.073071487 46.490162 -86.542725 -74.277451 0 0 -53.064831 -107.64655 -85.215294 -74.125992 -0.083152153 59.143181 -52.840855 -108.3376 -70.515739 79.327927 0 0 -52.840607 -108.39314 -0.071838625 60.172001 
680000000 -0.34639233 -105.81914 -94.160133 -129.98029 -53.433868 -113.72446 -0.37015015 -108.29305 -91.345612 -140.25854 -0.075253248 43.557728 -85.526436 -79.358788 0 0 -53.452682 -113.52139 -84.963844 -66.735367 -0.083740532 57.239868 -53.207638 -114.17347 -70.096535 82.746269 0 0 -53.18499 -114.31773 -0.070473306 58.242287 
690000000 -0.35964257 -116.01553 -93.231926 -103.5116 -53.92091 -119.56506 -0.38673538 -118.80587 -94.847939 -117.49678 -0.078980394 40.557178 -87.851509 -66.914856 0 0 -53.892338 -119.61575 -88.868172 -71.945541 -0.087155513 55.340515 -53.691944 -120.38729 -68.083847 84.24192 0 0 -53.703907 -120.44435 -0.071905263 56.312141 
700000000 -0.3740603 -126.47975 -95.829346 -154.38907 -54.514736 -125.47767 -0.40430778 -129.55055 -97.616211 -116.80242 -0.083136939 37.466499 -87.577232 -82.748566 0 0 -54.484112 -125.30643 -86.554314 -76.890411 -0.088623427 53.429737 -54.279652 -126.23148 -66.170433 71.141396 0 0 -54.258137 -126.14989 -0.072708666 54.361786 
710000000 -0.38860878 -137.21529 -108.90466 -46.247665 -55.105927 -131.44771 -0.41632292 -140.53883 -109.06001 150.1658 -0.088955589 34.298237 -91.309769 -88.353485 0 0 -55.080151 -131.44128 -88.207581 -89.194313 -0.089318834 51.508827 -54.89399 -132.33942 -66.170052 54.968197 0 0 -54.917324 -132.49179 -0.074194849 52.409496 
720000000 -0.40345648 -148.20776 -102.15504 41.353001 -55.921989 -137.41844 -0.42907223 -151.74017 -96.427139 15.94702 -0.093240239 31.037825 -92.783226 -72.905647 0 0 -55.893692 -138.02625 -92.020256 -65.114616 -0.089642555 49.579224 -55.73373 -138.96619 -67.026123 52.438759 0 0 -55.698647 -138.84215 -0.075329952 50.450191 
730000000 -0.41590872 -159.43896 -87.886429 -6.5174909 -56.859356 -144.07971 -0.43519711 -163.11516 -89.983345 17.191561 -0.097951628 27.68096 -94.278786 -98.845184 0 0 -56.881084 -143.82164 -91.94722 -87.361343 -0.091619618 47.642426 -56.694576 -144.81581 -66.44072 44.907524 0 0 -56.631821 -144.72987 -0.075898007 48.483326 
740000000 -0.4263182 -170.87355 -86.261314 10.086307 -58.070034 -150.36391 -0.43724212 -174.65073 -85.841171 19.500549 -0.10336926 24.221693 -95.318336 -113.37812 0 0 -58.092426 -150.34569 -92.068604 -71.813065 -0.093643762 45.719761 -57.86095 -151.52132 -66.761307 41.137623 0 0 -57.892502 -151.32445 -0.07687518 46.514744 
750000000 -0.43494105 177.53345 -82.37645 10.289553 -59.611298 -156.24606 -0.43945566 173.71338 -82.992668 5.0896935 -0.10765375 20.646673 -97.513275 -73.823189 0 0 -59.578587 -156.31752 -99.073296 -61.78648 -0.093385682 43.781097 -59.388836 -158.0244 -67.515984 41.661034 0 0 -59.389034 -157.91142 -0.075725541 44.534595 
760000000 -0.4410046 165.8429 -80.776627 -1.7578748 -61.669189 -163.02307 -0.44253337 162.06049 -81.027557 0.63838059 -0.11453387 16.951513 -93.249031 -59.535988 0 0 -61.661224 -162.8571 -101.86684 -116.04004 -0.094223149 41.840923 -61.526463 -164.71475 -66.478867 45.436069 0 0 -61.522514 -164.51219 -0.077591248 42.549206 
770000000 -0.44366091 154.10306 -78.137505 -7.0275807 -64.565079 -167.82773 -0.44640529 150.44882 -78.471848 -8.358943 -0.12086934 13.120088 -100.22398 -101.44278 0 0 -64.470337 -168.64954 -103.20332 -69.392288 -0.095676072 39.891525 -64.411972 -169.50594 -64.625938 42.044312 0 0 -64.54467 -168.86081 -0.078239784 40.557655 
780000000 -0.44267374 142.37787 -77.240807 -15.571273 -68.928452 -167.56419 -0.4424834 138.94914 -77.19796 -16.188347 -0.1275336 9.1371508 -97.94278 -12.95059 0 0 -68.881172 -169.83736 -106.62406 135.26996 -0.097153008 37.933495 -68.854645 -171.85284 -63.836327 25.709925 0 0 -68.730598 -172.00769 -0.078417785 38.555172 
790000000 -0.43880513 130.72542 -75.831589 -24.084805 -77.643875 -153.29619 -0.43358549 127.55724 -76.29467 -24.776239 -0.13514996 4.9897642 -108.24551 -150.14259 0 0 -78.007179 -154.77377 -104.57674 -157.3605 -0.097256787 35.968777 -77.512047 -159.67337 -64.631294 16.561203 0 0 -77.586685 -162.25638 -0.078575633 36.541687 
800000000 -0.43273738 119.19053 -75.697075 -28.303524 -76.610352 -42.569721 -0.42382756 116.31653 -75.247635 -29.903187 -0.14414085 0.66677618 -107.29995 -30.920107 0 0 -77.249901 -38.829044 -104.85321 15.02108 -0.098642886 33.994709 -77.350372 -38.805218 -65.053802 9.7088242 0 0 -77.077011 -42.083504 -0.07995376 34.52375 
810000000 -0.42471987 107.82018 -75.55423 -36.464554 -68.338501 -28.033747 -0.41345528 105.2767 -75.796501 -33.346527 -0.15330763 -3.8566911 -101.04543 17.165493 0 0 -68.110359 -28.40827 -103.8932 1.5823029 -0.098662056 31.997234 -68.552727 -28.306536 -65.789421 4.5391173 0 0 -68.476768 -28.868153 -0.08056207 32.492989 
820000000 -0.41605279 96.649773 -76.653069 -41.784077 -63.856804 -30.801323 -0.40468517 94.457054 -76.524925 -39.963703 -0.16345005 -8.6004467 -98.611328 41.302757 0 0 -63.830338 -30.782518 -97.967773 52.052361 -0.099586591 30.004715 -64.031303 -31.769379 -66.266754 3.4064717 0 0 -64.041138 -32.590523 -0.081341065 30.451172 
830000000 -0.40708286 85.711868 -78.238884 -46.299633 -60.88113 -36.088413 -0.39584079 83.876793 -78.424576 -49.590694 -0.17498329 -13.583508 -96.541656 90.997131 0 0 -60.958107 -36.338497 -99.19384 60.021996 -0.10039796 28.002237 -61.127235 -36.68848 -66.70182 3.348484 0 0 -61.196018 -36.968124 -0.081271112 28.403397 
840000000 -0.39815918 75.025848 -82.155655 -45.068409 -58.818081 -41.607891 -0.388201 73.547363 -82.482506 -49.387875 -0.18746394 -18.835604 -96.823967 85.622002 0 0 -58.812332 -41.616806 -95.616135 34.550297 -0.099491671 25.984816 -58.950066 -42.245766 -65.632568 4.5803108 0 0 -59.023705 -42.015884 -0.081777215 26.351299 
850000000 -0.38759229 64.602051 -92.209816 3.4319358 -57.128109 -47.332542 -0.37917262 63.46172 -92.715858 15.497409 -0.20254482 -24.384232 -95.312462 107.74718 0 0 -57.152222 -47.262516 -96.871635 65.435791 -0.099491186 23.961645 -57.256638 -48.057625 -65.129715 -2.6715627 0 0 -57.250286 -48.023392 -0.082629241 24.301895 
860000000 -0.37812579 54.428608 -81.115967 83.78373 -55.761448 -53.161224 -0.37041947 53.585663 -81.969841 83.266808 -0.2188089 -30.294607 -94.197845 49.776161 0 0 -55.760468 -53.347519 -95.502289 65.642189 -0.099414542 21.93132 -55.829967 -53.38599 -65.008156 -8.7651291 0 0 -55.863522 -53.63121 -0.081981897 22.238081 
870000000 -0.3676303 44.502983 -74.501854 81.56636 -54.58971 -58.992603 -0.36169457 43.913979 -74.590965 83.448891 -0.23826641 -36.606052 -93.642929 56.467724 0 0 -54.647079 -58.976997 -94.570511 55.111385 -0.10147945 19.889372 -54.633148 -58.946236 -64.855537 -15.44266 0 0 -54.657581 -58.762493 -0.082629681 20.169334 
880000000 -0.35974336 34.801876 -70.228905 79.454628 -53.60614 -64.527565 -0.35567862 34.411617 -70.199005 79.218781 -0.26084867 -43.383995 -92.624756 32.929813 0 0 -53.603764 -64.653191 -92.695724 38.697536 -0.10295432 17.837206 -53.607994 -64.636154 -64.812813 -21.336361 0 0 -53.634766 -64.826637 -0.082581714 18.094006 
890000000 -0.35341442 25.306084 -67.527992 74.817802 -52.701618 -70.439682 -0.35166669 25.058113 -67.60955 74.867783 -0.28874871 -50.70211 -93.041725 9.5033264 0 0 -52.733295 -70.324089 -92.693604 32.891457 -0.10368866 15.765262 -52.714504 -70.566177 -65.24704 -28.715437 0 0 -52.721142 -70.184883 -0.08445444 16.009798 
900000000 -0.34814179 15.979134 -65.966133 68.793968 -51.917892 -75.807686 -0.34871706 15.819516 -66.071404 69.128235 -0.32051191 -58.658916 -97.611908 -16.586498 0 0 -51.921734 -75.807701 -95.790642 -0.95548916 -0.1052596 13.667063 -51.883572 -75.876259 -66.013168 -35.729439 0 0 -51.929485 -75.976814 -0.08575692 13.911772 
910000000 -0.34487852 6.7724872 -66.106567 64.634598 -51.216217 -81.56282 -0.34725443 6.6426339 -66.037224 65.118141 -0.35768628 -67.371567 -95.781769 37.378925 0 0 -51.211971 -81.38353 -97.153549 -0.48171762 -0.1069885 11.563743 -51.15844 -81.464058 -66.744217 -39.790165 0 0 -51.180359 -81.417809 -0.087533511 11.805963 
920000000 -0.34458676 -2.347203 -69.39933 72.3564 -50.554932 -86.998245 -0.34940737 -2.5044379 -69.445282 71.918213 -0.40292981 -76.986588 -113.22175 -36.498856 0 0 -50.541763 -86.978592 -101.87123 30.457422 -0.10896398 9.4480104 -50.514778 -87.172249 -67.60257 -43.948689 0 0 -50.496895 -87.174263 -0.089024775 9.6817245 
930000000 -0.34753418 -11.422445 -68.994881 168.13158 -49.946259 -92.476242 -0.35496449 -11.663308 -68.939873 169.41933 -0.45669755 -87.689995 -101.34779 24.289581 0 0 -49.939014 -92.471413 -101.89225 4.4882622 -0.11010063 7.3175273 -49.861465 -92.791283 -68.146317 -45.035103 0 0 -49.882019 -92.662361 -0.090869755 7.5506716 
940000000 -0.35234839 -20.517307 -56.65638 -171.77496 -49.376152 -98.12075 -0.3623181 -20.900335 -56.614815 -171.67064 -0.52347422 -99.717171 -105.08825 -99.304131 0 0 -49.377304 -98.092064 -100.65141 157.63977 -0.11064037 5.188107 -49.253788 -98.569832 -68.695442 -47.335651 0 0 -49.291008 -98.392517 -0.093047135 5.4108343 
950000000 -0.36108008 -29.680735 -48.469715 -177.16168 -48.838299 -103.64606 -0.37426087 -30.267605 -48.46944 -177.00998 -0.60534608 -113.39184 -92.347092 157.40158 0 0 -48.850552 -103.8019 -96.332352 149.77051 -0.11039779 3.0469871 -48.723106 -104.11454 -69.24839 -48.553234 0 0 -48.730564 -104.07052 -0.093315966 3.2621861 
960000000 -0.37308621 -38.991413 -41.877796 172.80373 -48.342117 -109.48033 -0.39045703 -39.844147 -41.890797 172.91646 -0.70907944 -129.10637 -90.631363 145.32385 0 0 -48.340202 -109.55893 -87.290939 154.28716 -0.11090664 0.90281653 -48.200584 -110.00914 -70.187088 -50.55011 0 0 -48.215172 -110.0337 -0.096083038 1.1058944 
970000000 -0.39186016 -48.544556 -36.075069 160.17709 -47.84227 -115.49291 -0.41342759 -49.722576 -36.080997 160.27342 -0.83754593 -147.37791 -81.981819 150.42548 0 0 -47.851673 -115.29265 -82.693214 148.32852 -0.11089057 -1.2500132 -47.696003 -116.17768 -70.180763 -47.523514 0 0 -47.705853 -116.01443 -0.097453132 -1.0599166 
980000000 -0.4194133 -58.462791 -30.73773 145.30371 -47.369282 -121.40894 -0.44268018 -60.035793 -30.738649 145.41228 -1.0001875 -168.8018 -77.612358 132.75648 0 0 -47.374207 -121.41491 -77.669525 135.88655 -0.11077955 -3.4142089 -47.227016 -122.32156 -70.470291 -50.947121 0 0 -47.223816 -122.2446 -0.099003807 -3.234952 
990000000 -0.46249318 -68.914803 -25.736536 128.05054 -46.89727 -127.79327 -0.48237845 -70.984001 -25.737228 128.13895 -1.2013344 165.97964 -73.425484 119.79693 0 0 -46.891937 -127.71248 -73.401688 118.31407 -0.11165541 -5.5988021 -46.746349 -128.93419 -72.257767 -61.611565 0 0 -46.730515 -128.74188 -0.10051747 -5.4137702 
1000000000 -0.53717625 -80.139923 -21.049856 108.20157 -46.433983 -134.60663 -0.54437536 -82.911896 -21.048712 108.28347 -1.4465905 136.45798 -69.115715 100.5796 0 0 -46.441677 -134.50447 -69.256828 100.34744 -0.11273915 -7.8012562 -46.263348 -136.05861 -75.71228 -55.295612 0 0 -46.260681 -135.92189 -0.10118917 -7.6093082 
1010000000 -0.67868835 -92.441139 -16.71386 85.645958 -46.003105 -142.20099 -0.66337359 -96.515366 -16.708971 85.724518 -1.7447274 102.54253 -65.175461 77.564072 0 0 -46.02702 -142.06097 -65.363937 78.178352 -0.11419828 -10.025767 -45.798878 -144.05763 -75.559822 -25.58452 0 0 -45.796227 -143.97612 -0.10265831 -9.8118553 
1020000000 -0.95276636 -106.14624 -12.794757 60.505554 -45.643742 -150.55109 -1.0028082 -113.89942 -12.787956 60.574993 -2.1310396 64.831169 -61.812668 54.430698 0 0 -45.633415 -150.48079 -61.792538 53.688702 -0.11684719 -12.275245 -45.35191 -154.29169 -74.308113 -4.8833871 0 0 -45.331295 -154.1581 -0.104265 -12.034534 
1030000000 -1.4745928 -121.53894 -9.3672943 33.12635 -45.424782 -160.03499 -4.2069759 -144.13339 -9.3574934 33.181725 -2.7076261 24.52244 -58.693851 27.488377 0 0 -45.419559 -159.95531 -58.707218 27.24708 -0.11803918 -14.541286 -45.8825 -173.05438 -68.305962 -10.704103 0 0 -45.875328 -173.24246 -0.10554197 -14.26349 
1040000000 -2.4219954 -138.61867 -6.499537 3.9848685 -45.433834 -170.26436 -2.4023712 -107.03412 -6.4886241 4.0153041 -3.6786611 -17.11058 -56.137657 -0.86488277 0 0 -45.43161 -170.18619 -56.120205 -0.93422979 -0.1194474 -16.815931 -46.976124 -157.19008 -70.054184 -50.549095 0 0 -46.964104 -157.27045 -0.10714921 -16.505363 
1050000000 -4.0375104 -156.71225 -4.2672892 -26.199146 -45.779198 179.28294 -1.1828133 -136.84494 -4.257266 -26.195995 -5.3394384 -59.115944 -54.094032 -29.93622 0 0 -45.790051 179.26428 -54.090206 -30.193333 -0.11984819 -19.109116 -45.323013 -168.89258 -78.003891 -40.858406 0 0 -45.306747 -168.88028 -0.10789895 -18.756706 
1060000000 -6.5636621 -174.01256 -2.7133043 -56.269478 -46.491062 169.79459 -1.1867894 -161.78822 -2.706516 -56.280865 -8.021307 -100.89941 -52.685783 -59.490135 0 0 -46.473057 169.7263 -52.673527 -59.311123 -0.11994945 -21.41194 -44.811951 178.25963 -73.875183 7.5620003 0 0 -44.793926 178.27191 -0.10797887 -21.010555 
1070000000 -10.165239 172.65872 -1.7788305 -84.848427 -47.435036 162.46982 -1.3995703 170.22827 -1.7738097 -84.864296 -12.054181 -142.92087 -51.839767 -86.993454 0 0 -47.44186 162.42683 -51.82436 -86.963936 -0.12140361 -23.732218 -44.703037 163.85547 -70.111198 8.8784227 0 0 -44.691036 163.9388 -0.10997216 -23.273413 
1080000000 -14.82585 168.6815 -1.2935228 -110.99406 -48.412144 157.73701 -1.740849 135.59813 -1.2917098 -111.00549 -17.870901 170.00186 -51.423279 -112.20678 0 0 -48.431629 157.71175 -51.41991 -112.09411 -0.12260609 -26.066977 -45.09531 146.82388 -66.580963 6.829277 0 0 -45.076107 146.74802 -0.11053938 -25.551807 
1090000000 -19.52363 -176.33011 -1.0699539 -134.53375 -49.215794 154.77237 -2.1112971 92.071175 -1.0693063 -134.53676 -24.57596 94.687378 -51.262466 -134.73788 0 0 -49.237896 154.76828 -51.266697 -134.73224 -0.12429155 -28.420565 -46.44051 126.75923 -63.522194 -7.1726313 0 0 -46.443336 126.61138 -0.11219312 -27.837002 
1100000000 -20.707277 -148.00531 -0.97054029 -155.8111 -49.831917 152.34325 -2.2563882 41.595715 -0.96933377 -155.80594 -23.300699 7.8821111 -51.223812 -155.11505 0 0 -49.800354 152.49852 -51.246498 -155.04721 -0.1269192 -30.79969 -49.631023 105.20483 -62.090954 -32.650532 0 0 -49.633904 105.1667 -0.11418715 -30.139015 
1110000000 -19.403437 -134.53566 -0.91956878 -175.30725 -50.273212 149.78568 -2.0450037 -7.9583836 -0.91793734 -175.30116 -20.584887 -38.972954 -51.293438 -173.50291 0 0 -50.286652 149.85205 -51.303875 -173.48563 -0.1287269 -33.204235 -56.447037 91.134247 -62.685333 -53.533474 0 0 -56.473835 91.144798 -0.11611167 -32.456894 
1120000000 -18.386925 -131.98239 -0.88384408 166.55789 -50.702312 146.83057 -1.7030817 -50.092655 -0.88202989 166.56165 -19.36858 -73.635223 -51.427937 169.26466 0 0 -50.702068 146.97861 -51.407753 169.38312 -0.13164437 -35.629196 -65.821754 169.15695 -64.101479 -69.123314 0 0 -65.794029 170.02408 -0.11879225 -34.785973 
1130000000 -17.876022 -132.79999 -0.8531388 149.46748 -51.131516 143.71906 -1.4328887 -84.441986 -0.8512609 149.47096 -18.954256 -105.19142 -51.561581 153.37282 0 0 -51.139565 143.62068 -51.558876 153.41928 -0.13382232 -38.074207 -56.102692 -162.21915 -66.186844 -82.424332 0 0 -56.097244 -162.0817 -0.12130216 -37.133785 
1140000000 -17.613707 -134.40811 -0.82517946 133.2054 -51.624287 140.4586 -1.2691462 -113.28378 -0.82369125 133.21149 -18.83008 -135.94455 -51.743317 138.70384 0 0 -51.590267 140.4579 -51.767349 138.60092 -0.13634321 -40.542431 -52.289192 -171.0858 -68.748444 -93.778709 0 0 -52.284405 -171.10043 -0.12325548 -39.495342 
1150000000 -17.390804 -136.45203 -0.80218154 117.63382 -52.115646 137.48485 -1.1828758 -138.82805 -0.80086273 117.63942 -18.656851 -166.08725 -52.027592 124.61247 0 0 -52.089298 137.30774 -51.996582 124.66205 -0.13951802 -43.028458 -50.40313 177.48444 -72.694801 -100.63851 0 0 -50.391968 177.38339 -0.12703687 -41.872196 
1160000000 -17.116697 -139.28333 -0.78565586 102.65712 -52.640518 134.74748 -1.1490902 -162.6301 -0.78362244 102.66035 -18.287939 165.37302 -52.287228 111.3418 0 0 -52.635231 134.57413 -52.264759 111.26093 -0.14137205 -45.531696 -49.322407 165.73477 -85.385117 -93.909302 0 0 -49.314781 165.90152 -0.1287058 -44.260941 
1170000000 -16.783697 -143.41638 -0.77359891 88.210556 -53.19035 131.72844 -1.1464106 174.26094 -0.77170575 88.21524 -17.749866 139.51231 -52.623356 98.53994 0 0 -53.18169 131.82251 -52.634232 98.452408 -0.14312632 -48.05024 -48.769341 153.94264 -75.037674 24.538946 0 0 -48.745495 153.9261 -0.13097681 -46.66338 
1180000000 -16.436863 -149.1951 -0.76608866 74.235046 -53.805611 129.07787 -1.1620084 151.08948 -0.7630657 74.239975 -17.160896 116.79569 -53.050335 86.127068 0 0 -53.821507 129.19725 -53.036377 86.378426 -0.14564061 -50.591629 -48.599396 141.66902 -68.876114 5.9936957 0 0 -48.602722 141.65965 -0.1348222 -49.083 
1190000000 -16.14233 -156.62227 -0.7596575 60.682468 -54.424202 126.90811 -1.1939244 127.35527 -0.7570163 60.685154 -16.634809 97.01635 -53.572742 74.759979 0 0 -54.431374 126.78806 -53.570087 74.278236 -0.14809225 -53.153446 -48.820225 129.22272 -66.226974 -5.4857578 0 0 -48.789253 129.08264 -0.13685572 -51.517841 
1200000000 -15.942447 -165.54826 -0.75341934 47.507248 -54.985977 124.54176 -1.2346588 102.75108 -0.7512449 47.506504 -16.234568 79.734215 -54.190296 63.196735 0 0 -55.036282 124.5185 -54.20533 63.040474 -0.15076305 -55.74268 -49.332771 116.7391 -64.5411 -13.534545 0 0 -49.331482 116.60652 -0.14046516 -53.97282 
1210000000 -15.861856 -175.79959 -0.74593425 34.663509 -55.679459 121.66989 -1.2796351 77.085594 -0.7428847 34.660637 -15.995308 64.544968 -54.968895 52.417984 0 0 -55.725834 121.49351 -54.97448 52.311455 -0.15405647 -58.362171 -50.180244 103.70981 -62.59528 -23.416935 0 0 -50.189579 103.58719 -0.14151433 -56.446796 
1220000000 -15.91232 172.76944 -0.73466575 22.105724 -56.587803 119.04736 -1.3223594 50.357758 -0.73286164 22.098299 -15.911881 51.140697 -55.867966 42.439205 0 0 -56.551956 118.98326 -55.90852 42.519859 -0.15823857 -61.009018 -51.492325 90.163834 -61.509727 -36.940269 0 0 -51.490398 90.250824 -0.14451756 -58.946159 
1230000000 -16.090761 160.25537 -0.72251362 9.7985497 -57.619331 116.80301 -1.3574004 22.775501 -0.72038913 9.7913618 -15.972126 39.290787 -56.965923 33.510223 0 0 -57.659256 116.64985 -56.967377 33.520302 -0.16312432 -63.675377 -53.339516 76.603882 -60.918995 -50.152092 0 0 -53.336773 76.44873 -0.14719743 -61.466282 
1240000000 -16.379257 146.69887 -0.70779133 -2.2922442 -58.869774 115.25894 -1.378956 -5.2902875 -0.70633274 -2.2984431 -16.152363 28.854134 -58.193413 25.635883 0 0 -58.919399 115.49828 -58.222584 25.554445 -0.16747151 -66.364525 -55.817924 62.778297 -60.648323 -61.515999 0 0 -55.881165 62.956478 -0.14967896 -64.007538 
1250000000 -16.748192 132.10837 -0.69195509 -14.190214 -60.348358 115.78214 -1.3835481 -33.383343 -0.69083154 -14.198507 -16.429815 19.757746 -59.585342 18.926945 0 0 -60.352753 115.5746 -59.639465 19.315355 -0.17271778 -69.078743 -59.240498 50.492985 -60.544701 -73.927124 0 0 -59.281433 49.998558 -0.15334634 -66.56736 
